Time Stamp,ID,Extended,Dir,Bus,LEN,D1,D2,D3,D4,D5,D6,D7,D8
18445088912536061568,000002A0,false,Rx,0,8,00,00,00,64,00,00,E0,84,
18445088912536061835,000004A0,false,Rx,0,8,68,0A,4E,0A,62,0A,48,0A,
18445088912536062078,000002B7,false,Rx,0,8,1D,0D,00,00,00,00,10,00,
18445088912536062968,000000D2,false,Rx,0,5,32,36,00,00,04,00,00,00,
18445088912536063198,000000C2,false,Rx,0,8,44,80,44,00,80,90,E3,67,
18445088912536063403,000000D0,false,Rx,0,6,2A,FD,0C,38,13,F0,00,00,
18445088912536063608,000003D0,false,Rx,0,6,00,00,08,00,C8,86,00,00,
18445088912536063870,0000048C,false,Rx,0,8,17,10,07,00,00,00,00,00,
18445088912536064621,00000420,false,Rx,0,8,9C,A4,AC,00,18,41,FF,00,
18445088912536067021,00000440,false,Rx,0,8,20,52,50,FE,78,00,44,02,
18445088912536067263,00000540,false,Rx,0,8,80,00,FF,00,FF,00,02,56,
18445088912536068247,0000038A,false,Rx,0,4,A8,80,08,20,00,00,00,00,
18445088912536070325,00000280,false,Rx,0,8,01,18,44,0D,1A,00,1B,1A,
18445088912536070530,00000284,false,Rx,0,6,63,57,04,30,00,00,00,00,
18445088912536070775,000000AE,false,Rx,0,8,FB,F8,00,00,00,00,03,00,
18445088912536070944,00000050,false,Rx,0,4,00,B0,F4,44,00,00,00,00,
18445088912536071187,000001A0,false,Rx,0,8,00,40,5A,0A,FE,FE,00,1F,
18445088912536071420,00000288,false,Rx,0,8,4E,BD,78,00,00,50,ED,0C,
18445088912536071656,000001AC,false,Rx,0,8,81,17,10,00,65,21,00,C2,
18445088912536071900,00000380,false,Rx,0,8,00,94,00,BA,00,00,00,06,
18445088912536072142,000002A0,false,Rx,0,8,00,00,00,64,00,00,F0,94,
18445088912536072373,0000044C,false,Rx,0,8,AF,67,43,94,58,02,05,40,
18445088912536072606,000003A0,false,Rx,0,8,BD,07,B2,10,21,A5,9F,03,
18445088912536072847,00000480,false,Rx,0,8,70,00,FB,F2,7F,08,06,08,
18445088912536073078,000000C2,false,Rx,0,8,44,80,22,00,80,A0,9B,79,
18445088912536073277,000000D0,false,Rx,0,6,D6,0E,04,38,14,F0,00,00,
18445088912536073503,000003D2,false,Rx,0,7,BE,0C,33,80,01,00,00,00,
18445088912536073741,00000488,false,Rx,0,8,FD,1A,18,80,9E,FF,FF,E1,
18445088912536073983,0000048A,false,Rx,0,8,50,23,01,02,00,00,00,70,
18445088912536074229,0000048C,false,Rx,0,8,06,01,07,00,00,00,00,00,
18445088912536074464,00000368,false,Rx,0,8,40,12,89,83,05,07,5A,00,
18445088912536074697,000004A0,false,Rx,0,8,58,0A,5E,0A,68,0A,44,0A,
18445088912536074930,00000588,false,Rx,0,8,E1,78,80,02,14,80,04,95,
18445088912536075174,000004A8,false,Rx,0,8,18,00,07,80,00,20,70,CF,
18445088912536075412,000005E0,false,Rx,0,8,30,00,40,1C,49,83,07,FB,
18445088912536075644,00000320,false,Rx,0,8,20,40,12,65,0A,85,0A,81,
18445088912536075878,000005A0,false,Rx,0,8,7D,0A,07,70,00,79,1B,AB,
18445088912536076127,000003B2,false,Rx,0,8,00,80,47,02,00,00,00,00,
18445088912536077116,00000440,false,Rx,0,8,20,52,50,FE,78,00,4C,02,
18445088912536077356,00000540,false,Rx,0,8,90,00,FF,00,FF,00,02,56,
18445088912536078473,000003D4,false,Rx,0,8,40,82,42,80,08,00,00,00,
18445088912536078714,000005C0,false,Rx,0,8,00,00,00,A6,2D,00,08,83,
18445088912536080415,00000280,false,Rx,0,8,01,18,44,0D,1A,00,1B,1A,
18445088912536080661,000000AE,false,Rx,0,8,0B,08,00,00,00,00,03,00,
18445088912536080907,00000380,false,Rx,0,8,00,94,00,BA,00,00,00,06,
18445088912536081151,000001A0,false,Rx,0,8,00,40,5E,0A,FE,FE,00,10,
18445088912536081388,00000488,false,Rx,0,8,E2,1A,17,80,9E,FF,FF,F1,
18445088912536081634,000002A0,false,Rx,0,8,00,00,00,64,00,00,00,64,
18445088912536081915,000004A0,false,Rx,0,8,58,0A,64,0A,3C,0A,44,0A,
18445088912536082554,000000D2,false,Rx,0,5,33,37,00,00,04,00,00,00,
18445088912536083013,000000D0,false,Rx,0,6,C2,1F,05,3C,14,F0,00,00,
18445088912536083249,000000C2,false,Rx,0,8,44,80,22,80,80,B0,7F,E9,
18445088912536083455,000003D0,false,Rx,0,6,00,00,08,00,C8,86,00,00,
18445088912536083701,0000048C,false,Rx,0,8,05,02,07,00,00,00,00,00,
18445088912536084461,00000366,false,Rx,0,8,59,09,00,00,00,00,80,D0,
18445088912536084691,000005D2,false,Rx,0,8,01,43,54,37,41,33,30,48,
18445088912536084925,0000056A,false,Rx,0,8,BE,03,10,20,10,0D,00,90,
18445088912536087042,00000440,false,Rx,0,8,20,52,50,FE,78,00,54,02,
18445088912536087280,00000540,false,Rx,0,8,A0,00,FF,00,FF,00,02,56,
18445088912536088315,000005CA,false,Rx,0,8,0D,0D,00,00,00,00,00,00,
18445088912536090303,00000280,false,Rx,0,8,01,17,2C,0D,1A,00,1B,1A,
18445088912536090505,00000284,false,Rx,0,6,6C,58,04,30,00,00,00,00,
18445088912536090752,000000AE,false,Rx,0,8,1B,18,00,00,00,00,03,00,
18445088912536090921,00000050,false,Rx,0,4,00,B0,04,B4,00,00,00,00,
18445088912536091163,000001A0,false,Rx,0,8,00,40,58,0A,FE,FE,00,11,
18445088912536091395,00000288,false,Rx,0,8,8A,BD,78,00,00,50,ED,0C,
18445088912536091631,000001AC,false,Rx,0,8,70,18,10,00,65,21,FD,C1,
18445088912536091879,00000380,false,Rx,0,8,00,94,00,B9,00,00,00,06,
18445088912536092123,000002A0,false,Rx,0,8,00,00,00,64,00,00,10,74,
18445088912536092354,0000044C,false,Rx,0,8,B4,6C,43,94,58,02,05,50,
18445088912536092590,000003A0,false,Rx,0,8,06,08,B5,1C,61,65,A0,03,
18445088912536092830,00000480,false,Rx,0,8,84,00,08,F3,7F,08,06,0E,
18445088912536093063,000000C2,false,Rx,0,8,44,80,44,80,80,C0,93,B7,
18445088912536093264,000000D0,false,Rx,0,6,FB,20,03,3C,14,F0,00,00,
18445088912536093497,00000488,false,Rx,0,8,F7,1A,17,80,9E,FF,1A,01,
18445088912536093735,0000048A,false,Rx,0,8,A0,23,01,02,00,00,00,80,
18445088912536093969,000004A0,false,Rx,0,8,58,0A,58,0A,66,0A,3C,0A,
18445088912536094201,00000588,false,Rx,0,8,E1,78,80,86,14,80,04,95,
18445088912536094435,00000368,false,Rx,0,8,41,13,89,83,05,07,5A,00,
18445088912536094669,00000320,false,Rx,0,8,20,40,12,57,0A,46,0A,81,
18445088912536094914,000004A8,false,Rx,0,8,18,00,07,80,00,20,80,3F,
18445088912536095222,000005A0,false,Rx,0,8,7D,0A,07,80,00,7C,1B,AB,
18445088912536095522,000005B7,false,Rx,0,8,D4,D4,00,00,00,00,00,00,
18445088912536095946,00000572,false,Rx,0,1,07,00,00,00,00,00,00,00,
18445088912536097062,00000440,false,Rx,0,8,20,52,50,FE,78,00,5C,02,
18445088912536097304,00000540,false,Rx,0,8,B0,00,FF,00,FF,00,02,56,
18445088912536097547,00000397,false,Rx,0,8,02,0A,08,00,00,00,00,00,
18445088912536097795,0000048C,false,Rx,0,8,04,03,07,00,00,00,00,00,
18445088912536098072,0000038A,false,Rx,0,4,B8,80,18,20,00,00,00,00,
18445088912536099766,000003D4,false,Rx,0,8,41,83,42,80,08,00,00,00,
18445088912536100367,00000280,false,Rx,0,8,01,18,2C,0D,1A,00,1B,1A,
18445088912536100614,000000AE,false,Rx,0,8,2B,28,00,00,00,00,03,00,
18445088912536100859,00000380,false,Rx,0,8,00,94,00,B9,00,00,00,06,
18445088912536101099,000001A0,false,Rx,0,8,00,40,5E,0A,FE,FE,00,12,
18445088912536101335,00000488,false,Rx,0,8,ED,1A,18,80,9E,FF,1F,11,
18445088912536101578,000002A0,false,Rx,0,8,00,00,00,64,00,00,20,44,
18445088912536101866,000004A0,false,Rx,0,8,66,0A,56,0A,76,0A,3C,0A,
18445088912536102552,000000D2,false,Rx,0,5,3C,38,00,00,04,00,00,00,
18445088912536102813,000005C0,false,Rx,0,8,01,00,00,A6,2D,00,08,82,
18445088912536103013,000000D0,false,Rx,0,6,E9,31,04,38,14,F0,00,00,
18445088912536103243,000000C2,false,Rx,0,8,44,80,00,00,80,D0,88,6B,
18445088912536103448,000003D0,false,Rx,0,6,00,00,08,00,C8,86,00,00,
18445088912536106112,000005D6,false,Rx,0,5,00,00,00,00,00,00,00,00,
18445088912536106437,0000059D,false,Rx,0,8,00,AA,ED,00,00,00,00,00,
18445088912536107007,00000440,false,Rx,0,8,20,52,50,FE,78,00,64,02,
18445088912536107249,00000540,false,Rx,0,8,C0,00,FF,00,FF,00,02,0F,
18445088912536107501,0000048C,false,Rx,0,8,03,04,07,00,00,00,00,00,
18445088912536110307,00000280,false,Rx,0,8,01,18,2C,0D,1A,00,1B,1A,
18445088912536110513,00000284,false,Rx,0,6,6D,59,04,30,00,00,00,00,
18445088912536110756,000000AE,false,Rx,0,8,3B,38,00,00,00,00,03,00,
18445088912536110925,00000050,false,Rx,0,4,00,B0,14,A4,00,00,00,00,
18445088912536111166,000001A0,false,Rx,0,8,00,40,5A,0A,FE,FE,00,13,
18445088912536111399,00000288,false,Rx,0,8,8A,BD,78,00,00,50,ED,0C,
18445088912536111636,000001AC,false,Rx,0,8,7D,19,10,00,69,21,FD,C1,
18445088912536111878,00000380,false,Rx,0,8,00,94,00,BB,00,00,00,06,
18445088912536112122,000002A0,false,Rx,0,8,00,00,00,64,00,00,30,54,
18445088912536112354,0000044C,false,Rx,0,8,84,6C,43,94,58,02,05,60,
18445088912536112583,000003A0,false,Rx,0,8,8F,09,B8,28,91,25,A1,03,
18445088912536112825,000002B7,false,Rx,0,8,1E,0E,00,00,00,00,10,00,
18445088912536113023,000000D0,false,Rx,0,6,93,42,0A,38,13,F0,00,00,
18445088912536113259,000000C2,false,Rx,0,8,44,80,00,00,80,E0,E7,5B,
18445088912536113500,00000480,false,Rx,0,8,84,00,08,F3,7F,08,06,0E,
18445088912536113732,00000488,false,Rx,0,8,40,1A,18,80,9E,FF,82,21,
18445088912536113970,0000048A,false,Rx,0,8,B1,22,01,02,00,00,00,90,
18445088912536114202,000004A0,false,Rx,0,8,6A,0A,4C,0A,64,0A,3A,0A,
18445088912536114434,00000368,false,Rx,0,8,46,14,89,83,05,07,5A,00,
18445088912536114678,000004A8,false,Rx,0,8,00,00,03,80,00,20,90,33,
18445088912536114910,00000320,false,Rx,0,8,20,40,12,57,0A,47,0A,81,
18445088912536115144,00000588,false,Rx,0,8,E1,78,80,00,14,80,04,95,
18445088912536115381,000005A0,false,Rx,0,8,7E,0A,07,90,00,7F,1B,AB,
18445088912536117077,00000440,false,Rx,0,8,20,52,50,FE,78,00,6C,02,
18445088912536117325,0000048C,false,Rx,0,8,02,05,07,00,00,00,00,00,
18445088912536117567,00000540,false,Rx,0,8,D0,00,FF,00,FF,00,02,0F,
18445088912536118779,000003D4,false,Rx,0,8,46,84,42,80,08,00,00,00,
18445088912536120373,00000280,false,Rx,0,8,01,18,2C,0D,1A,00,1B,1A,
18445088912536120620,00000380,false,Rx,0,8,00,94,00,BB,00,00,00,06,
18445088912536120857,000000AE,false,Rx,0,8,4B,48,00,00,00,00,03,00,
18445088912536121090,00000488,false,Rx,0,8,D5,1A,18,80,9E,FF,07,31,
18445088912536121328,000001A0,false,Rx,0,8,00,40,4C,0A,FE,FE,00,14,
18445088912536121580,000002A0,false,Rx,0,8,00,00,00,64,00,00,40,24,
18445088912536121825,000004A0,false,Rx,0,8,54,0A,44,0A,42,0A,40,0A,
18445088912536122195,000005C0,false,Rx,0,8,02,00,00,A6,2D,00,08,81,
18445088912536122838,000000D2,false,Rx,0,5,3D,39,00,00,04,00,00,00,
18445088912536123071,000000C2,false,Rx,0,8,44,80,00,00,80,F0,C2,4B,
18445088912536123269,000000D0,false,Rx,0,6,84,53,0C,38,13,F0,00,00,
18445088912536123478,000003D0,false,Rx,0,6,00,00,08,00,C8,86,00,00,
18445088912536123697,000003D2,false,Rx,0,7,BF,0D,33,80,01,00,00,00,
18445088912536124435,00000366,false,Rx,0,8,5A,0A,00,00,00,00,80,D0,
18445088912536124681,0000056A,false,Rx,0,8,8E,03,10,20,10,0D,00,A0,
18445088912536125804,00000390,false,Rx,0,8,03,00,50,00,40,00,00,08,
18445088912536126068,00000392,false,Rx,0,8,08,00,04,21,00,17,80,00,
18445088912536126334,00000393,false,Rx,0,8,92,00,00,00,00,00,00,00,
18445088912536126542,00000570,false,Rx,0,5,47,20,AC,00,00,00,00,00,
18445088912536126796,000005D0,false,Rx,0,8,C0,04,61,8F,39,59,C0,00,
18445088912536127060,00000440,false,Rx,0,8,20,52,50,FE,78,00,74,02,
18445088912536127304,00000540,false,Rx,0,8,E0,00,FF,00,FF,00,02,0F,
18445088912536127651,0000038A,false,Rx,0,4,88,80,28,20,00,00,00,00,
18445088912536130367,00000280,false,Rx,0,8,01,18,2C,0D,1A,00,1B,1A,
18445088912536130571,00000284,false,Rx,0,6,6E,5A,04,30,00,00,00,00,
18445088912536130811,000000AE,false,Rx,0,8,5B,58,00,00,00,00,03,00,
18445088912536130982,00000050,false,Rx,0,4,00,B0,24,94,00,00,00,00,
18445088912536131226,000001A0,false,Rx,0,8,00,40,50,0A,FE,FE,00,15,
18445088912536131458,00000288,false,Rx,0,8,8A,BD,78,00,00,50,ED,0C,
18445088912536131692,000001AC,false,Rx,0,8,8C,1A,10,00,65,21,00,C2,
18445088912536131936,00000380,false,Rx,0,8,00,94,00,BB,00,00,00,06,
18445088912536132180,000002A0,false,Rx,0,8,00,00,00,64,00,00,50,34,
18445088912536132410,0000044C,false,Rx,0,8,95,6D,43,94,58,02,05,70,
18445088912536132644,000003A0,false,Rx,0,8,03,0A,BB,34,C1,E5,A1,03,
18445088912536132883,00000480,false,Rx,0,8,84,00,15,F3,7F,08,06,13,
18445088912536133127,000000C2,false,Rx,0,8,44,80,00,00,80,00,3E,3B,
18445088912536133325,000000D0,false,Rx,0,6,B3,64,0C,38,13,F0,00,00,
18445088912536133557,00000488,false,Rx,0,8,84,1A,18,80,9E,FF,26,41,
18445088912536133802,0000048A,false,Rx,0,8,81,22,01,02,00,00,00,A0,
18445088912536134049,0000048C,false,Rx,0,8,01,06,07,00,00,00,00,00,
18445088912536134283,00000368,false,Rx,0,8,47,15,89,83,05,07,5A,00,
18445088912536134516,000004A0,false,Rx,0,8,4E,0A,54,0A,38,0A,38,0A,
18445088912536134751,00000320,false,Rx,0,8,20,40,12,57,0A,48,0A,81,
18445088912536134994,000004A8,false,Rx,0,8,14,00,07,80,00,20,A0,13,
18445088912536135228,00000588,false,Rx,0,8,E1,78,80,00,14,80,04,95,
18445088912536135469,000005A0,false,Rx,0,8,7F,04,07,A0,00,82,1B,AB,
18445088912536135691,00000720,false,Rx,0,7,04,03,0D,00,00,00,00,00,
18445088912536136103,000005DC,false,Rx,0,8,77,14,72,7F,1D,00,80,4D,
18445088912536137061,00000440,false,Rx,0,8,20,52,50,FE,78,00,7C,02,
18445088912536137306,00000540,false,Rx,0,8,F0,00,FF,00,FF,00,02,0F,
18445088912536138471,000003D4,false,Rx,0,8,45,85,40,80,08,00,00,00,
18445088912536140585,000000AE,false,Rx,0,8,6B,68,00,00,00,00,03,00,
18445088912536140827,00000280,false,Rx,0,8,01,18,2C,0D,1A,00,1B,1A,
18445088912536141065,000001A0,false,Rx,0,8,00,40,54,0A,FE,FE,00,16,
18445088912536141313,00000380,false,Rx,0,8,00,94,00,BA,00,00,00,06,
18445088912536141558,000002A0,false,Rx,0,8,00,00,00,64,00,00,60,04,
18445088912536141788,00000488,false,Rx,0,8,4D,1A,18,80,9E,FF,FF,51,
18445088912536142038,0000048C,false,Rx,0,8,00,07,07,00,00,00,00,00,
18445088912536142272,000004A0,false,Rx,0,8,4E,0A,5E,0A,48,0A,52,0A,
18445088912536142694,000000D2,false,Rx,0,5,3E,3A,00,00,04,00,00,00,
18445088912536142997,000000D0,false,Rx,0,6,AB,75,05,38,13,F0,00,00,
18445088912536143236,000000C2,false,Rx,0,8,44,80,00,00,80,10,1B,2B,
18445088912536143441,000003D0,false,Rx,0,6,00,00,08,00,C8,86,00,00,
18445088912536146433,000005C0,false,Rx,0,8,03,00,00,A6,2D,00,08,80,
18445088912536146983,00000440,false,Rx,0,8,20,52,50,FE,78,00,04,02,
18445088912536147228,00000540,false,Rx,0,8,00,00,FF,00,FF,00,02,56,
18445088912536147449,00000722,false,Rx,0,7,08,03,01,01,00,00,00,00,
18445088912536149062,00000497,false,Rx,0,8,00,60,00,00,74,46,00,60,
18445088912536149797,00000721,false,Rx,0,7,08,03,01,00,00,00,00,00,
18445088912536150330,00000280,false,Rx,0,8,01,18,2C,0D,1A,00,1C,1A,
18445088912536150532,00000284,false,Rx,0,6,6F,5B,04,30,00,00,00,00,
18445088912536150772,000000AE,false,Rx,0,8,7B,78,00,00,00,00,03,00,
18445088912536151021,00000041,false,Rx,0,8,F7,0B,00,00,00,00,00,40,
18445088912536151261,000001A0,false,Rx,0,8,00,40,54,0A,FE,FE,00,17,
18445088912536151494,00000288,false,Rx,0,8,8A,BD,78,00,00,50,ED,0C,
18445088912536151726,000001AC,false,Rx,0,8,81,1B,10,00,69,21,00,C2,
18445088912536151897,00000050,false,Rx,0,4,00,B0,34,84,00,00,00,00,
18445088912536152140,000002A0,false,Rx,0,8,00,00,00,64,00,00,70,14,
18445088912536152383,00000380,false,Rx,0,8,00,94,00,BB,00,00,00,06,
18445088912536152622,000003A0,false,Rx,0,8,00,0B,BE,40,F1,A5,A2,03,
18445088912536152852,0000044C,false,Rx,0,8,64,6C,43,94,58,02,05,80,
18445088912536153088,000000C2,false,Rx,0,8,44,80,00,00,80,20,74,1B,
18445088912536153285,000000D0,false,Rx,0,6,5A,86,07,38,13,F0,00,00,
18445088912536153525,00000480,false,Rx,0,8,84,00,15,F3,7F,08,06,13,
18445088912536153760,00000488,false,Rx,0,8,7D,1A,18,80,9E,FF,FF,61,
18445088912536153996,0000048A,false,Rx,0,8,92,21,01,02,00,00,00,B0,
18445088912536154228,000004A0,false,Rx,0,8,4C,0A,60,0A,6C,0A,5E,0A,
18445088912536154464,00000368,false,Rx,0,8,44,16,89,83,05,07,5A,00,
18445088912536154696,00000320,false,Rx,0,8,20,40,12,51,0A,49,0A,81,
18445088912536154940,000004A8,false,Rx,0,8,2D,00,03,80,00,20,B0,3E,
18445088912536155189,00000550,false,Rx,0,8,40,C0,80,00,00,00,00,00,
18445088912536155429,00000588,false,Rx,0,8,E1,81,80,00,14,80,04,95,
18445088912536155673,0000058C,false,Rx,0,8,90,A0,21,00,00,00,00,00,
18445088912536155909,000005A0,false,Rx,0,8,7F,06,07,B0,00,85,1B,AB,
18445088912536156153,0000048C,false,Rx,0,8,0F,08,07,00,00,00,00,00,
18445088912536157051,00000440,false,Rx,0,8,20,52,50,FE,78,00,0C,02,
18445088912536157293,00000540,false,Rx,0,8,10,00,FF,00,FF,00,02,56,
18445088912536158204,0000038A,false,Rx,0,4,98,80,38,20,00,00,00,00,
18445088912536158660,000003D4,false,Rx,0,8,46,86,40,80,08,00,00,00,
18445088912536160450,00000280,false,Rx,0,8,01,18,1C,0D,1A,00,1C,1A,
18445088912536160692,000000AE,false,Rx,0,8,8B,88,00,00,00,00,03,00,
18445088912536160938,00000380,false,Rx,0,8,00,94,00,BC,00,00,00,06,
18445088912536161180,000001A0,false,Rx,0,8,00,40,5E,0A,FE,FE,00,18,
18445088912536161416,00000488,false,Rx,0,8,6D,1A,18,80,9E,FF,FF,71,
18445088912536161656,000002A0,false,Rx,0,8,00,00,00,64,00,00,80,E4,
18445088912536161941,000004A0,false,Rx,0,8,56,0A,64,0A,6E,0A,56,0A,
18445088912536162189,000002B7,false,Rx,0,8,1F,0F,00,00,00,00,10,00,
18445088912536162792,000000D2,false,Rx,0,5,3F,3B,00,00,04,00,00,00,
18445088912536162993,000000D0,false,Rx,0,6,47,97,0B,38,13,F0,00,00,
18445088912536163229,000000C2,false,Rx,0,8,44,80,00,00,80,30,51,0B,
18445088912536163438,000003D0,false,Rx,0,6,00,00,08,00,C8,86,00,00,
18445088912536164288,0000056A,false,Rx,0,8,9E,03,10,20,10,0D,00,B0,
18445088912536164528,00000366,false,Rx,0,8,5B,0B,00,00,00,00,80,D0,
18445088912536164756,00000520,false,Rx,0,8,61,43,01,0F,1B,2E,EE,02,
18445088912536165816,000005C0,false,Rx,0,8,04,00,00,A6,2D,00,08,87,
18445088912536166266,0000048C,false,Rx,0,8,0E,09,07,00,00,00,00,00,
18445088912536166983,00000440,false,Rx,0,8,20,52,50,FE,78,00,14,02,
18445088912536167225,00000540,false,Rx,0,8,20,00,FF,00,FF,00,02,56,
18445088912536170320,00000280,false,Rx,0,8,01,18,1C,0D,1A,00,1C,1A,
18445088912536170520,00000284,false,Rx,0,6,68,5C,04,30,00,00,00,00,
18445088912536170755,00000288,false,Rx,0,8,E8,BD,78,00,00,50,ED,0C,
18445088912536170927,00000050,false,Rx,0,4,00,B0,44,F4,00,00,00,00,
18445088912536171166,000000AE,false,Rx,0,8,9B,98,00,00,00,00,03,00,
18445088912536171417,00000380,false,Rx,0,8,00,94,00,BE,00,00,00,06,
18445088912536171656,000001A0,false,Rx,0,8,00,40,5A,0A,FE,FE,00,19,
18445088912536171884,0000044C,false,Rx,0,8,74,6C,43,94,58,02,05,90,
18445088912536172117,000001AC,false,Rx,0,8,86,1C,10,00,69,21,00,C2,
18445088912536172359,00000480,false,Rx,0,8,C0,00,22,F3,7F,08,06,60,
18445088912536172600,000002A0,false,Rx,0,8,00,00,00,64,00,00,90,F4,
18445088912536172836,00000488,false,Rx,0,8,9D,1A,18,80,9E,FF,FF,81,
18445088912536173036,000000D0,false,Rx,0,6,7E,A8,0D,38,13,F0,00,00,
18445088912536173272,000000C2,false,Rx,0,8,44,80,00,00,80,40,AA,FB,
18445088912536173507,000003A0,false,Rx,0,8,66,0C,C1,4C,21,66,A3,03,
18445088912536173728,000003D2,false,Rx,0,7,BC,0E,33,80,01,00,00,00,
18445088912536173968,0000048A,false,Rx,0,8,E2,21,01,02,00,00,00,C0,
18445088912536174203,000004A0,false,Rx,0,8,52,0A,66,0A,54,0A,60,0A,
18445088912536174439,00000588,false,Rx,0,8,E1,81,80,84,14,80,04,95,
18445088912536174674,00000368,false,Rx,0,8,45,17,89,83,05,07,5A,00,
18445088912536174916,000004A8,false,Rx,0,8,30,00,03,80,00,20,C0,53,
18445088912536175156,000005E0,false,Rx,0,8,30,00,40,1C,49,83,07,FB,
18445088912536175387,00000320,false,Rx,0,8,20,40,12,53,0A,4A,0A,81,
18445088912536175632,000005A0,false,Rx,0,8,80,0A,07,C0,00,88,1B,AB,
18445088912536175876,00000723,false,Rx,0,7,08,03,05,00,02,00,00,00,
18445088912536176163,000003B2,false,Rx,0,8,00,80,47,02,00,00,00,00,
18445088912536177044,00000440,false,Rx,0,8,20,52,50,FE,78,00,1C,02,
18445088912536177286,00000540,false,Rx,0,8,30,00,FF,00,FF,00,02,56,
18445088912536179882,000003D4,false,Rx,0,8,47,87,40,80,08,00,00,00,
18445088912536180184,0000048C,false,Rx,0,8,0D,0A,07,00,00,00,00,00,
18445088912536180461,00000280,false,Rx,0,8,01,18,1C,0D,1A,00,1C,1A,
18445088912536180701,000000AE,false,Rx,0,8,AB,A8,00,00,00,00,03,00,
18445088912536180949,00000380,false,Rx,0,8,00,94,00,BE,00,00,00,06,
18445088912536181190,000001A0,false,Rx,0,8,00,40,50,0A,FE,FE,00,1A,
18445088912536181425,00000488,false,Rx,0,8,8D,1A,18,80,9E,FF,FF,91,
18445088912536181667,000002A0,false,Rx,0,8,00,00,00,64,00,00,A0,C4,
18445088912536181918,000004A0,false,Rx,0,8,52,0A,4E,0A,42,0A,66,0A,
18445088912536182867,000000D2,false,Rx,0,5,38,3C,00,00,04,00,00,00,
18445088912536183099,000000C2,false,Rx,0,8,44,80,00,00,80,50,8F,EB,
18445088912536183299,000000D0,false,Rx,0,6,6F,B9,0D,38,13,F0,00,00,
18445088912536183505,000003D0,false,Rx,0,6,00,00,08,00,C8,86,00,00,
18445088912536186965,00000440,false,Rx,0,8,20,52,50,FE,78,00,24,02,
18445088912536187208,00000540,false,Rx,0,8,40,00,FF,00,FF,00,02,0F,
18445088912536187953,0000038A,false,Rx,0,4,E8,80,48,20,00,00,00,00,
18445088912536190036,000005C0,false,Rx,0,8,05,00,00,A6,2D,00,08,86,
18445088912536190328,00000280,false,Rx,0,8,01,18,1C,0D,1A,00,1C,1A,
18445088912536190528,00000284,false,Rx,0,6,69,5D,04,30,00,00,00,00,
18445088912536190769,000000AE,false,Rx,0,8,BB,B8,00,00,00,00,03,00,
18445088912536190943,00000050,false,Rx,0,4,00,B0,54,E4,00,00,00,00,
18445088912536191180,000001A0,false,Rx,0,8,00,40,58,0A,FE,FE,00,1B,
18445088912536191415,00000288,false,Rx,0,8,E8,BD,78,00,00,50,ED,0C,
18445088912536191659,000001AB,false,Rx,0,8,02,02,00,00,00,00,00,00,
18445088912536191907,00000380,false,Rx,0,8,00,94,00,BE,00,00,00,06,
18445088912536192140,000001AC,false,Rx,0,8,8B,1D,10,00,65,21,00,C2,
18445088912536192371,0000044C,false,Rx,0,8,42,6A,43,94,58,02,05,A0,
18445088912536192615,000002A0,false,Rx,0,8,00,00,00,64,00,00,B0,D4,
18445088912536192855,00000480,false,Rx,0,8,C0,00,22,F3,7F,08,06,60,
18445088912536193092,000000C2,false,Rx,0,8,44,80,00,00,80,60,E0,DB,
18445088912536193294,000000D0,false,Rx,0,6,1D,CA,0C,38,13,F0,00,00,
18445088912536193524,000003A0,false,Rx,0,8,41,0D,C4,58,51,26,A4,03,
18445088912536193758,00000488,false,Rx,0,8,BD,1A,18,80,9E,FF,FF,A1,
18445088912536193996,0000048A,false,Rx,0,8,F3,20,01,02,00,00,00,D0,
18445088912536194242,0000048C,false,Rx,0,8,0C,0B,07,00,00,00,00,00,
18445088912536194473,00000368,false,Rx,0,8,42,18,89,84,05,08,5A,00,
18445088912536194711,00000320,false,Rx,0,8,20,40,12,57,0A,4B,0A,81,
18445088912536194946,000004A0,false,Rx,0,8,5A,0A,58,0A,26,0A,5A,0A,
18445088912536195183,00000588,false,Rx,0,8,E1,81,80,00,14,80,04,95,
18445088912536195428,000004A8,false,Rx,0,8,48,00,07,80,00,20,D0,3F,
18445088912536195695,000005A0,false,Rx,0,8,80,0A,07,D0,00,8B,1B,AB,
18445088912536195978,000005B7,false,Rx,0,8,D5,D5,00,00,00,00,00,00,
18445088912536196094,00000572,false,Rx,0,1,07,00,00,00,00,00,00,00,
18445088912536197049,00000440,false,Rx,0,8,20,52,50,FE,78,00,2C,02,
18445088912536197288,00000397,false,Rx,0,8,03,0B,08,00,00,00,00,00,
18445088912536197532,00000540,false,Rx,0,8,50,00,FF,00,FF,00,02,0F,
18445088912536198752,000003D4,false,Rx,0,8,48,88,40,80,08,00,00,00,
18445088912536200434,00000280,false,Rx,0,8,01,19,1C,0D,1A,00,1C,1A,
18445088912536200676,000000AE,false,Rx,0,8,CB,C8,00,00,00,00,03,00,
18445088912536200923,00000380,false,Rx,0,8,00,94,00,BF,00,00,00,06,
18445088912536201165,000001A0,false,Rx,0,8,00,40,56,0A,FE,FE,00,1C,
18445088912536201401,00000488,false,Rx,0,8,AC,1A,19,80,9E,FF,FF,B1,
18445088912536201648,000002A0,false,Rx,0,8,00,00,00,64,00,00,C0,A4,
18445088912536201888,00000580,false,Rx,0,8,9C,00,00,30,19,7D,48,12,
18445088912536202125,000004A0,false,Rx,0,8,58,0A,54,0A,32,0A,42,0A,
18445088912536202780,000000D2,false,Rx,0,5,39,3D,00,00,04,00,00,00,
18445088912536202995,000000D0,false,Rx,0,6,0C,DB,0C,38,13,F0,00,00,
18445088912536203229,000000C2,false,Rx,0,8,44,80,00,00,80,70,C5,CB,
18445088912536203434,000003D0,false,Rx,0,6,00,00,08,00,C8,86,00,00,
18445088912536204268,0000056A,false,Rx,0,8,EE,03,10,20,10,0D,00,C0,
18445088912536204512,0000048C,false,Rx,0,8,0B,0C,07,00,00,00,00,00,
18445088912536204751,00000366,false,Rx,0,8,5C,0C,00,00,00,00,80,D0,
18445088912536206177,000005D6,false,Rx,0,5,00,00,00,00,00,00,00,00,
18445088912536206963,00000440,false,Rx,0,8,20,52,50,FE,78,00,34,02,
18445088912536207207,00000540,false,Rx,0,8,60,00,FF,00,FF,00,02,0F,
18445088912536209424,000005C0,false,Rx,0,8,06,00,00,A6,2D,00,08,85,
18445088912536210343,00000280,false,Rx,0,8,01,19,1C,0D,1A,00,1C,1A,
18445088912536210549,00000284,false,Rx,0,6,6A,5E,04,30,00,00,00,00,
18445088912536210791,000000AE,false,Rx,0,8,DB,D8,00,00,00,00,03,00,
18445088912536210963,00000050,false,Rx,0,4,00,B0,64,D4,00,00,00,00,
18445088912536211202,000001A0,false,Rx,0,8,00,40,4C,0A,FE,FE,00,1D,
18445088912536211436,00000288,false,Rx,0,8,E8,BD,78,00,00,50,ED,0C,
18445088912536211669,000001AC,false,Rx,0,8,88,1E,10,00,65,21,00,C2,
18445088912536211916,00000380,false,Rx,0,8,00,94,00,BF,00,00,00,06,
18445088912536212156,000002A0,false,Rx,0,8,00,00,00,64,00,00,D0,B4,
18445088912536212407,000002B7,false,Rx,0,8,10,00,00,00,00,00,10,00,
18445088912536212638,000003A0,false,Rx,0,8,6D,0E,C7,64,81,E6,A4,03,
18445088912536212867,0000044C,false,Rx,0,8,52,6A,43,94,58,02,05,B0,
18445088912536213103,000000C2,false,Rx,0,8,44,80,00,00,80,80,39,BB,
18445088912536213305,000000D0,false,Rx,0,6,3A,EC,0D,38,13,F0,00,00,
18445088912536213544,00000480,false,Rx,0,8,C0,00,2F,F3,7F,08,06,6D,
18445088912536213779,00000488,false,Rx,0,8,DC,1A,19,80,9E,FF,FF,C1,
18445088912536214021,0000048A,false,Rx,0,8,C3,20,01,02,00,00,00,E0,
18445088912536214266,0000048C,false,Rx,0,8,0A,0D,07,00,00,00,00,00,
18445088912536214494,00000368,false,Rx,0,8,43,19,89,84,05,08,5A,00,
18445088912536214729,00000320,false,Rx,0,8,20,40,12,57,0A,4C,0A,81,
18445088912536214964,000004A0,false,Rx,0,8,54,0A,46,0A,44,0A,3A,0A,
18445088912536215205,00000588,false,Rx,0,8,E1,81,80,00,14,80,04,95,
18445088912536215444,000004A8,false,Rx,0,8,5D,00,03,80,00,20,E0,1E,
18445088912536215745,000005A0,false,Rx,0,8,80,00,07,E0,00,8E,1B,AB,
18445088912536217065,00000440,false,Rx,0,8,20,52,50,FE,78,00,3C,02,
18445088912536217233,0000038A,false,Rx,0,4,F8,80,58,20,00,00,00,00,
18445088912536217480,00000540,false,Rx,0,8,70,00,FF,00,FF,00,02,0F,
18445088912536218515,000003D4,false,Rx,0,8,49,89,40,80,08,00,00,00,
18445088912536220396,00000280,false,Rx,0,8,01,19,1C,0D,1A,00,1C,1A,
18445088912536220638,000000AE,false,Rx,0,8,EB,E8,00,00,00,00,03,00,
18445088912536220886,00000380,false,Rx,0,8,00,94,00,BF,00,00,00,06,
18445088912536221132,000001A0,false,Rx,0,8,00,40,3E,0A,FE,FE,00,1E,
18445088912536221365,00000488,false,Rx,0,8,CC,1A,19,80,9E,FF,FF,D1,
18445088912536221606,000002A0,false,Rx,0,8,00,00,00,64,00,00,E0,84,
18445088912536221890,000004A0,false,Rx,0,8,42,0A,3C,0A,54,0A,42,0A,
18445088912536222890,000000D2,false,Rx,0,5,3A,3E,00,00,04,00,00,00,
18445088912536223125,000000C2,false,Rx,0,8,44,80,00,00,80,90,1C,AB,
18445088912536223324,000000D0,false,Rx,0,6,37,FD,10,38,12,F0,00,00,
18445088912536223529,000003D0,false,Rx,0,6,00,00,08,00,C8,86,00,00,
18445088912536223752,000003D2,false,Rx,0,7,BD,0F,33,80,01,00,00,00,
18445088912536225807,00000390,false,Rx,0,8,03,00,50,00,40,00,00,08,
18445088912536226074,00000392,false,Rx,0,8,08,00,04,21,00,17,80,00,
18445088912536226280,00000570,false,Rx,0,5,47,20,AC,00,00,00,00,00,
18445088912536226535,000005D0,false,Rx,0,8,C0,04,61,8F,39,59,C0,00,
18445088912536227014,00000440,false,Rx,0,8,20,52,50,FE,78,00,44,02,
18445088912536227250,00000540,false,Rx,0,8,80,00,FF,00,FF,00,02,56,
18445088912536228636,0000048C,false,Rx,0,8,09,0E,07,00,00,00,00,00,
18445088912536230691,000000AE,false,Rx,0,8,FB,F8,00,00,00,00,03,00,
18445088912536230861,00000050,false,Rx,0,4,00,B0,74,C4,00,00,00,00,
18445088912536231103,000001A0,false,Rx,0,8,00,40,46,0A,FE,FE,00,1F,
18445088912536231341,00000280,false,Rx,0,8,01,19,0C,0D,1A,00,1C,1A,
18445088912536231573,000001AC,false,Rx,0,8,85,1F,10,00,69,21,00,C2,
18445088912536231779,00000284,false,Rx,0,6,6B,5F,04,30,00,00,00,00,
18445088912536232017,00000288,false,Rx,0,8,E8,BD,78,00,00,50,ED,0C,
18445088912536232256,000002A0,false,Rx,0,8,00,00,00,64,00,00,F0,94,
18445088912536232504,00000380,false,Rx,0,8,00,94,00,BF,00,00,00,06,
18445088912536232734,000003A0,false,Rx,0,8,05,0F,CB,70,B1,A6,A5,03,
18445088912536232968,0000044C,false,Rx,0,8,22,6A,43,94,58,02,05,C0,
18445088912536233206,000000C2,false,Rx,0,8,44,80,00,00,80,A0,73,9B,
18445088912536233406,000000D0,false,Rx,0,6,D0,0E,04,38,12,F0,00,00,
18445088912536233647,00000480,false,Rx,0,8,C0,00,3C,F3,7F,08,06,7E,
18445088912536233883,00000488,false,Rx,0,8,FC,1A,19,80,9E,FF,FF,E1,
18445088912536234127,0000048A,false,Rx,0,8,EC,1F,01,02,00,00,00,F0,
18445088912536234363,000004A0,false,Rx,0,8,44,0A,48,0A,5E,0A,42,0A,
18445088912536234598,00000320,false,Rx,0,8,20,40,12,49,0A,4D,0A,81,
18445088912536234835,00000368,false,Rx,0,8,40,1A,89,84,05,08,5A,00,
18445088912536235074,000004A8,false,Rx,0,8,48,00,03,80,00,20,F0,1B,
18445088912536235311,00000588,false,Rx,0,8,E1,81,80,84,14,80,04,95,
18445088912536235550,000005A0,false,Rx,0,8,7F,FC,06,F0,00,91,1B,AB,
18445088912536235789,000005C0,false,Rx,0,8,07,00,00,A6,2D,00,08,84,
18445088912536236030,000005F3,false,Rx,0,8,00,00,AC,01,00,00,00,00,
18445088912536236162,0000060E,false,Rx,0,2,97,00,00,00,00,00,00,00,
18445088912536236395,000005DC,false,Rx,0,8,77,14,72,7F,1D,00,80,4D,
18445088912536237043,00000440,false,Rx,0,8,20,52,50,FE,78,00,4C,02,
18445088912536237281,00000540,false,Rx,0,8,90,00,FF,00,FF,00,02,56,
18445088912536238333,0000048C,false,Rx,0,8,08,0F,07,00,00,00,00,00,
18445088912536238578,000003D4,false,Rx,0,8,4A,8A,40,80,08,00,00,00,
18445088912536240398,00000280,false,Rx,0,8,01,19,0C,0D,1A,00,1C,1A,
18445088912536240643,000000AE,false,Rx,0,8,0B,08,00,00,00,00,03,00,
18445088912536240892,00000380,false,Rx,0,8,00,94,00,BE,00,00,00,06,
18445088912536241134,000001A0,false,Rx,0,8,00,40,4C,0A,FE,FE,00,10,
18445088912536241372,00000488,false,Rx,0,8,ED,1A,18,80,9E,FF,FF,F1,
18445088912536241618,000002A0,false,Rx,0,8,00,00,00,64,00,00,00,64,
18445088912536241892,000004A0,false,Rx,0,8,4A,0A,4E,0A,52,0A,44,0A,
18445088912536243014,000000D0,false,Rx,0,6,CB,1F,0A,3C,12,F0,00,00,
18445088912536243249,000000C2,false,Rx,0,8,44,80,00,00,80,B0,56,8B,
18445088912536243433,000000D2,false,Rx,0,5,3B,3F,00,00,04,00,00,00,
18445088912536243639,000003D0,false,Rx,0,6,00,00,08,00,C8,86,00,00,
18445088912536244270,0000056A,false,Rx,0,8,FE,03,10,20,10,0D,00,D0,
18445088912536244508,00000366,false,Rx,0,8,5D,0D,00,00,00,00,80,D0,
18445088912536246967,00000440,false,Rx,0,8,20,52,50,FE,78,00,54,02,
18445088912536247203,00000540,false,Rx,0,8,A0,00,FF,00,FF,00,02,56,
18445088912536248022,0000048C,false,Rx,0,8,17,10,07,00,00,00,00,00,
18445088912536248227,0000038A,false,Rx,0,4,C8,80,68,20,00,00,00,00,
18445088912536248586,00000497,false,Rx,0,8,00,60,00,00,74,46,00,60,
18445088912536250622,00000280,false,Rx,0,8,01,19,0C,0D,1A,00,1C,1A,
18445088912536250864,000000AE,false,Rx,0,8,1B,18,00,00,00,00,03,00,
18445088912536251033,00000050,false,Rx,0,4,00,B0,84,34,00,00,00,00,
18445088912536251270,000001A0,false,Rx,0,8,00,40,50,0A,FE,FE,00,11,
18445088912536251474,00000284,false,Rx,0,6,64,50,04,30,00,00,00,00,
18445088912536251711,000001AC,false,Rx,0,8,78,10,10,00,65,21,FD,C1,
18445088912536251947,00000288,false,Rx,0,8,36,BD,78,00,00,50,ED,0C,
18445088912536252194,000002A0,false,Rx,0,8,00,00,00,64,00,00,10,74,
18445088912536252441,00000380,false,Rx,0,8,00,94,00,BF,00,00,00,06,
18445088912536252675,000003A0,false,Rx,0,8,50,00,CE,7C,E1,A6,A6,03,
18445088912536252906,0000044C,false,Rx,0,8,31,69,43,94,58,02,05,D0,
18445088912536253140,000000C2,false,Rx,0,8,44,80,00,00,80,C0,AD,7B,
18445088912536253340,000000D0,false,Rx,0,6,FA,20,04,3C,12,F0,00,00,
18445088912536253578,00000480,false,Rx,0,8,19,00,3C,F3,7F,08,06,A7,
18445088912536253810,00000488,false,Rx,0,8,F9,1A,19,80,9E,FF,1A,01,
18445088912536254050,0000048A,false,Rx,0,8,1D,1E,01,02,00,00,00,00,
18445088912536254282,000004A0,false,Rx,0,8,58,0A,4A,0A,42,0A,44,0A,
18445088912536254515,00000368,false,Rx,0,8,41,1B,89,84,05,08,5A,00,
18445088912536254750,00000320,false,Rx,0,8,20,40,12,43,0A,4E,0A,81,
18445088912536254991,000004A8,false,Rx,0,8,33,00,03,80,00,20,00,90,
18445088912536255232,00000588,false,Rx,0,8,E1,81,80,00,14,80,04,95,
18445088912536255473,0000058C,false,Rx,0,8,90,A0,21,00,00,00,00,00,
18445088912536255714,000005A0,false,Rx,0,8,7D,04,07,00,00,94,1B,AB,
18445088912536257039,00000440,false,Rx,0,8,20,52,50,FE,78,00,5C,02,
18445088912536257280,00000540,false,Rx,0,8,B0,00,FF,00,FF,00,02,56,
18445088912536257894,000005C0,false,Rx,0,8,08,00,00,A6,2D,00,08,8B,
18445088912536258342,0000048C,false,Rx,0,8,06,01,07,00,00,00,00,00,
18445088912536259802,000003D4,false,Rx,0,8,30,8B,3B,80,08,00,00,00,
18445088912536260336,00000280,false,Rx,0,8,01,19,0C,0D,1A,00,1C,1A,
18445088912536260584,00000380,false,Rx,0,8,00,94,00,BF,00,00,00,06,
18445088912536260830,000000AE,false,Rx,0,8,2B,28,00,00,00,00,03,00,
18445088912536261065,00000488,false,Rx,0,8,EC,1A,19,80,9E,FF,1F,11,
18445088912536261305,000001A0,false,Rx,0,8,00,40,54,0A,FE,FE,00,12,
18445088912536261611,000002A0,false,Rx,0,8,00,00,00,64,00,00,20,44,
18445088912536261873,000004A0,false,Rx,0,8,6A,0A,42,0A,24,0A,44,0A,
18445088912536262320,000002B7,false,Rx,0,8,11,01,00,00,00,00,10,00,
18445088912536262945,000000D2,false,Rx,0,5,34,30,00,00,04,00,00,00,
18445088912536263177,000000C2,false,Rx,0,8,44,80,00,00,80,D0,88,6B,
18445088912536263376,000000D0,false,Rx,0,6,E0,31,0B,38,12,F0,00,00,
18445088912536263582,000003D0,false,Rx,0,6,00,00,08,00,C8,86,00,00,
18445088912536264548,00000420,false,Rx,0,8,9C,A4,AC,00,18,41,FF,00,
18445088912536266982,00000440,false,Rx,0,8,20,52,50,FE,78,00,64,02,
18445088912536267226,00000540,false,Rx,0,8,C0,00,FF,00,FF,00,02,0F,
18445088912536270358,00000280,false,Rx,0,8,01,19,14,0D,1A,00,1C,1A,
18445088912536270561,00000284,false,Rx,0,6,65,51,04,30,00,00,00,00,
18445088912536270804,000000AE,false,Rx,0,8,3B,38,00,00,00,00,03,00,
18445088912536270971,00000050,false,Rx,0,4,00,B0,94,24,00,00,00,00,
18445088912536271215,000001A0,false,Rx,0,8,00,40,46,0A,FE,FE,00,13,
18445088912536271452,00000288,false,Rx,0,8,36,BD,78,00,00,50,ED,0C,
18445088912536271683,000001AC,false,Rx,0,8,79,11,10,00,65,21,FD,C1,
18445088912536271933,00000380,false,Rx,0,8,00,94,00,C0,00,00,00,06,
18445088912536272177,000002A0,false,Rx,0,8,00,00,00,64,00,00,30,54,
18445088912536272410,0000044C,false,Rx,0,8,0C,64,43,94,58,02,05,E0,
18445088912536272644,000003A0,false,Rx,0,8,8E,01,D1,8C,11,67,A7,03,
18445088912536272882,00000480,false,Rx,0,8,19,00,49,F3,7F,08,06,D2,
18445088912536273113,000000C2,false,Rx,0,8,44,80,AA,00,80,E0,DE,B1,
18445088912536273312,000000D0,false,Rx,0,6,82,42,19,38,11,F0,00,00,
18445088912536273537,000003D2,false,Rx,0,7,B2,00,33,80,01,00,00,00,
18445088912536273769,00000488,false,Rx,0,8,41,1A,19,80,9E,FF,82,21,
18445088912536274010,0000048A,false,Rx,0,8,0D,1E,01,02,00,00,00,10,
18445088912536274258,0000048C,false,Rx,0,8,05,02,07,00,00,00,00,00,
18445088912536274486,00000368,false,Rx,0,8,46,1C,89,85,05,09,5A,00,
18445088912536274719,000004A0,false,Rx,0,8,68,0A,28,0A,1A,0A,52,0A,
18445088912536274952,00000320,false,Rx,0,8,20,40,12,51,0A,4F,0A,81,
18445088912536275190,000004A8,false,Rx,0,8,2D,00,07,80,00,20,10,9A,
18445088912536275424,00000588,false,Rx,0,8,E1,81,80,02,14,80,04,95,
18445088912536275661,000005A0,false,Rx,0,8,7C,FC,06,10,00,98,1B,AB,
18445088912536275898,000005E0,false,Rx,0,8,30,00,40,1C,49,83,07,FB,
18445088912536276148,000003B2,false,Rx,0,8,00,80,47,02,00,00,00,00,
18445088912536277065,00000440,false,Rx,0,8,20,52,50,FE,78,00,6C,02,
18445088912536277305,00000540,false,Rx,0,8,D0,00,FF,00,FF,00,02,0F,
18445088912536278227,0000038A,false,Rx,0,4,D8,80,78,20,00,00,00,00,
18445088912536278649,000003D4,false,Rx,0,8,37,8C,3B,80,08,00,00,00,
18445088912536280456,00000280,false,Rx,0,8,01,19,14,0D,1A,00,1C,1A,
18445088912536280693,000000AE,false,Rx,0,8,4B,48,00,00,00,00,03,00,
18445088912536280943,00000380,false,Rx,0,8,00,94,00,C0,00,00,00,06,
18445088912536281187,000001A0,false,Rx,0,8,00,40,44,0A,FE,FE,00,14,
18445088912536281421,00000488,false,Rx,0,8,D4,1A,19,80,9E,FF,07,31,
18445088912536281665,000002A0,false,Rx,0,8,00,00,00,64,00,00,40,24,
18445088912536281943,000004A0,false,Rx,0,8,6A,0A,22,0A,36,0A,52,0A,
18445088912536282180,000005C0,false,Rx,0,8,09,00,00,A6,2D,00,08,8A,
18445088912536282622,0000048C,false,Rx,0,8,04,03,07,00,00,00,00,00,
18445088912536282811,000000D2,false,Rx,0,5,35,31,00,00,04,00,00,00,
18445088912536283019,000000D0,false,Rx,0,6,94,53,1F,38,10,F0,00,00,
18445088912536283251,000000C2,false,Rx,0,8,44,80,32,01,80,F0,46,18,
18445088912536283456,000003D0,false,Rx,0,6,01,00,08,00,C8,86,00,00,
18445088912536284264,0000056A,false,Rx,0,8,CE,03,10,20,10,0D,00,E0,
18445088912536284511,00000366,false,Rx,0,8,5E,0E,00,00,00,00,80,D0,
18445088912536285209,000005D2,false,Rx,0,8,02,43,30,31,32,30,38,31,
18445088912536286962,00000440,false,Rx,0,8,20,52,50,FE,78,00,74,02,
18445088912536287206,00000540,false,Rx,0,8,E0,00,FF,00,FF,00,02,0F,
18445088912536290322,00000280,false,Rx,0,8,01,19,14,0D,1A,00,1C,1A,
18445088912536290524,00000284,false,Rx,0,6,66,52,04,30,00,00,00,00,
18445088912536290765,000000AE,false,Rx,0,8,5B,58,00,00,00,00,03,00,
18445088912536290932,00000050,false,Rx,0,4,00,B0,A4,14,00,00,00,00,
18445088912536291175,000001A0,false,Rx,0,8,00,40,40,0A,FE,FE,00,15,
18445088912536291411,00000288,false,Rx,0,8,36,BD,78,00,00,50,ED,0C,
18445088912536291645,000001AC,false,Rx,0,8,7A,12,10,00,65,21,FD,C1,
18445088912536291893,00000380,false,Rx,0,8,00,94,00,BF,00,00,00,06,
18445088912536292139,000002A0,false,Rx,0,8,00,00,00,64,00,00,50,34,
18445088912536292376,0000044C,false,Rx,0,8,1F,67,43,94,58,02,05,F0,
18445088912536292611,000003A0,false,Rx,0,8,83,02,D4,98,41,27,A8,03,
18445088912536292848,00000480,false,Rx,0,8,19,00,49,F3,7F,08,06,D2,
18445088912536293082,000000C2,false,Rx,0,8,44,80,32,01,80,00,BA,08,
18445088912536293278,000000D0,false,Rx,0,6,AF,64,13,38,10,F0,00,00,
18445088912536293510,00000488,false,Rx,0,8,85,1A,19,80,9E,FF,26,41,
18445088912536293752,0000048A,false,Rx,0,8,3E,1D,01,02,00,00,00,20,
18445088912536294005,0000048C,false,Rx,0,8,03,04,07,00,00,00,00,00,
18445088912536294235,000004A0,false,Rx,0,8,4E,0A,34,0A,42,0A,54,0A,
18445088912536294465,00000368,false,Rx,0,8,47,1D,89,85,05,09,5A,00,
18445088912536294705,00000320,false,Rx,0,8,20,40,12,43,0A,40,0A,81,
18445088912536294947,000004A8,false,Rx,0,8,30,00,03,80,00,20,20,B3,
18445088912536295188,00000588,false,Rx,0,8,E1,81,80,00,14,80,04,95,
18445088912536295421,000005A0,false,Rx,0,8,7D,F8,06,20,00,9B,1B,AB,
18445088912536295666,000005CA,false,Rx,0,8,0E,0E,00,00,00,00,00,00,
18445088912536295782,00000572,false,Rx,0,1,07,00,00,00,00,00,00,00,
18445088912536296024,000005B7,false,Rx,0,8,D6,D6,00,00,00,00,00,00,
18445088912536297022,00000440,false,Rx,0,8,20,52,50,FE,78,00,7C,02,
18445088912536297268,00000397,false,Rx,0,8,04,0C,08,00,00,00,00,00,
18445088912536297510,00000540,false,Rx,0,8,F0,00,FF,00,FF,00,02,0F,
18445088912536298569,000003D4,false,Rx,0,8,39,8D,34,80,08,00,00,00,
18445088912536300363,00000280,false,Rx,0,8,01,19,14,0D,1A,00,1C,1A,
18445088912536300601,000000AE,false,Rx,0,8,6B,68,00,00,00,00,03,00,
18445088912536300849,00000380,false,Rx,0,8,00,94,00,BF,00,00,00,06,
18445088912536301089,000001A0,false,Rx,0,8,00,40,3A,0A,FE,FE,00,16,
18445088912536301323,00000488,false,Rx,0,8,4C,1A,19,80,9E,FF,FF,51,
18445088912536301567,000002A0,false,Rx,0,8,00,00,00,64,00,00,60,04,
18445088912536301833,000004A0,false,Rx,0,8,3C,0A,3A,0A,6C,0A,56,0A,
18445088912536302547,000000D2,false,Rx,0,5,36,32,00,00,04,00,00,00,
18445088912536302987,000000D0,false,Rx,0,6,AA,75,03,3C,10,F0,00,00,
18445088912536303225,000000C2,false,Rx,0,8,44,80,32,01,80,10,9F,F8,
18445088912536303430,000003D0,false,Rx,0,6,00,00,08,00,C8,86,00,00,
18445088912536304496,0000051A,false,Rx,0,8,54,0C,00,00,00,40,7E,02,
18445088912536304820,000005D6,false,Rx,0,5,00,00,00,00,00,00,00,00,
18445088912536306350,000005C0,false,Rx,0,8,0A,00,00,A6,2D,00,08,89,
18445088912536306804,0000048C,false,Rx,0,8,02,05,07,00,00,00,00,00,
18445088912536307045,00000440,false,Rx,0,8,20,52,50,FE,78,00,04,02,
18445088912536307286,00000540,false,Rx,0,8,00,00,FF,00,FF,00,02,56,
18445088912536307687,0000038A,false,Rx,0,4,28,80,88,20,00,00,00,00,
18445088912536310357,00000280,false,Rx,0,8,01,19,24,0D,1B,00,1C,1B,
18445088912536310561,00000284,false,Rx,0,6,67,53,04,30,00,00,00,00,
18445088912536310801,000000AE,false,Rx,0,8,7B,78,00,00,00,00,03,00,
18445088912536310972,00000050,false,Rx,0,4,00,B0,B4,04,00,00,00,00,
18445088912536311211,000001A0,false,Rx,0,8,00,40,38,0A,FE,FE,00,17,
18445088912536311446,00000288,false,Rx,0,8,36,BD,78,00,00,50,ED,0C,
18445088912536311678,000001AC,false,Rx,0,8,77,13,10,00,69,21,FD,C1,
18445088912536311928,00000380,false,Rx,0,8,00,94,00,C0,00,00,00,06,
18445088912536312170,000002A0,false,Rx,0,8,00,00,00,64,00,00,70,14,
18445088912536312409,0000044C,false,Rx,0,8,E0,68,43,94,58,02,05,00,
18445088912536312634,000003A0,false,Rx,0,8,4D,03,D7,A4,71,E7,A8,03,
18445088912536312881,000002B7,false,Rx,0,8,12,02,00,00,00,00,10,00,
18445088912536313109,000000C2,false,Rx,0,8,44,80,44,80,80,20,4A,57,
18445088912536313307,000000D0,false,Rx,0,6,55,86,0F,3C,10,F0,00,00,
18445088912536313541,00000480,false,Rx,0,8,19,00,56,F3,7F,08,06,CD,
18445088912536313777,00000488,false,Rx,0,8,7D,1B,19,80,9E,FF,FF,61,
18445088912536314017,0000048A,false,Rx,0,8,2E,1D,01,02,00,00,00,30,
18445088912536314249,000004A0,false,Rx,0,8,26,0A,4A,0A,6E,0A,42,0A,
18445088912536314482,00000368,false,Rx,0,8,44,1E,89,85,05,09,5A,00,
18445088912536314723,000004A8,false,Rx,0,8,48,00,03,80,00,20,30,DB,
18445088912536314959,00000320,false,Rx,0,8,20,40,12,3D,0A,41,0A,81,
18445088912536315194,00000588,false,Rx,0,8,E1,81,80,04,14,80,04,95,
18445088912536315428,000005A0,false,Rx,0,8,7D,F4,06,30,00,9E,1B,AB,
18445088912536317023,00000440,false,Rx,0,8,20,52,50,FE,78,00,0C,02,
18445088912536317264,00000540,false,Rx,0,8,10,00,FF,00,FF,00,02,56,
18445088912536318521,000003D4,false,Rx,0,8,3A,8E,34,80,08,00,00,00,
18445088912536320383,00000280,false,Rx,0,8,01,19,24,0D,1B,00,1C,1B,
18445088912536320626,000000AE,false,Rx,0,8,8B,88,00,00,00,00,03,00,
18445088912536320875,00000380,false,Rx,0,8,00,94,00,C0,00,00,00,06,
18445088912536321123,000001A0,false,Rx,0,8,00,40,3A,0A,FE,FE,00,18,
18445088912536321354,00000488,false,Rx,0,8,6D,1B,19,80,9E,FF,FF,71,
18445088912536321596,000002A0,false,Rx,0,8,00,00,00,64,00,00,80,E4,
18445088912536321846,0000048C,false,Rx,0,8,01,06,07,00,00,00,00,00,
18445088912536322078,000004A0,false,Rx,0,8,28,0A,4C,0A,50,0A,46,0A,
18445088912536322814,000000D2,false,Rx,0,5,37,33,00,00,04,00,00,00,
18445088912536323014,000000D0,false,Rx,0,6,43,97,08,3C,10,F0,00,00,
18445088912536323242,000000C2,false,Rx,0,8,44,80,66,80,80,30,87,25,
18445088912536323448,000003D0,false,Rx,0,6,00,00,08,00,C8,86,00,00,
18445088912536323671,000003D2,false,Rx,0,7,B3,01,33,80,01,00,00,00,
18445088912536324419,00000366,false,Rx,0,8,5F,0F,00,00,00,00,80,D0,
18445088912536324661,0000056A,false,Rx,0,8,DF,03,10,20,10,0C,00,F0,
18445088912536325987,00000390,false,Rx,0,8,03,00,50,00,40,00,00,08,
18445088912536326247,00000392,false,Rx,0,8,08,00,04,21,00,17,78,00,
18445088912536326514,00000393,false,Rx,0,8,92,00,00,00,00,00,00,00,
18445088912536326723,00000570,false,Rx,0,5,47,20,AC,00,00,00,00,00,
18445088912536326986,000005D0,false,Rx,0,8,C0,04,61,8F,39,59,C0,00,
18445088912536327222,00000440,false,Rx,0,8,20,52,50,FE,78,00,14,02,
18445088912536327464,00000540,false,Rx,0,8,20,00,FF,00,FF,00,02,56,
18445088912536330400,00000280,false,Rx,0,8,01,19,24,0D,1A,00,1C,1A,
18445088912536330607,00000284,false,Rx,0,6,60,54,04,30,00,00,00,00,
18445088912536330847,000000AE,false,Rx,0,8,9B,98,00,00,00,00,03,00,
18445088912536331015,00000050,false,Rx,0,4,00,B0,C4,74,00,00,00,00,
18445088912536331255,000001A0,false,Rx,0,8,00,40,42,0A,FE,FE,00,19,
18445088912536331489,00000288,false,Rx,0,8,4E,BD,78,00,00,50,ED,0C,
18445088912536331722,000001AC,false,Rx,0,8,8E,14,10,00,69,21,00,C2,
18445088912536331971,00000380,false,Rx,0,8,00,94,00,C0,00,00,00,06,
18445088912536332213,000002A0,false,Rx,0,8,00,00,00,64,00,00,90,F4,
18445088912536332446,0000044C,false,Rx,0,8,FF,67,43,94,58,02,05,10,
18445088912536332674,000003A0,false,Rx,0,8,D2,04,DA,B0,B1,A7,A9,03,
18445088912536332908,00000480,false,Rx,0,8,70,00,56,F3,7F,08,06,A4,
18445088912536333140,000000C2,false,Rx,0,8,44,80,44,00,80,40,55,B7,
18445088912536333337,000000D0,false,Rx,0,6,77,A8,07,38,10,F0,00,00,
18445088912536333572,00000488,false,Rx,0,8,9C,1A,19,80,9E,FF,FF,81,
18445088912536333811,0000048A,false,Rx,0,8,5E,1D,01,02,00,00,00,40,
18445088912536334063,0000048C,false,Rx,0,8,00,07,07,00,00,00,00,00,
18445088912536334291,00000368,false,Rx,0,8,45,1F,89,86,05,0A,5A,00,
18445088912536334526,000004A0,false,Rx,0,8,38,0A,4C,0A,34,0A,5E,0A,
18445088912536334765,00000588,false,Rx,0,8,E1,81,80,00,14,80,04,95,
18445088912536335001,00000320,false,Rx,0,8,20,40,12,39,0A,42,0A,81,
18445088912536335238,000004A8,false,Rx,0,8,45,00,03,80,00,20,40,A6,
18445088912536335477,000005C0,false,Rx,0,8,0B,00,00,A6,2D,00,08,88,
18445088912536335710,000005A0,false,Rx,0,8,7E,FA,06,40,00,A1,1B,AB,
18445088912536335934,00000720,false,Rx,0,7,04,03,0D,00,00,00,00,00,
18445088912536336194,000005DC,false,Rx,0,8,77,14,72,7F,1D,00,80,4D,
18445088912536337038,00000440,false,Rx,0,8,20,52,50,FE,78,00,1C,02,
18445088912536337280,00000540,false,Rx,0,8,30,00,FF,00,FF,00,02,56,
18445088912536337447,0000038A,false,Rx,0,4,38,80,98,20,00,00,00,00,
18445088912536340205,000003D4,false,Rx,0,8,3B,8F,34,80,08,00,00,00,
18445088912536340446,00000280,false,Rx,0,8,01,18,34,0D,1A,00,1C,1A,
18445088912536340683,000000AE,false,Rx,0,8,AB,A8,00,00,00,00,03,00,
18445088912536340931,00000380,false,Rx,0,8,00,94,00,BF,00,00,00,06,
18445088912536341171,000001A0,false,Rx,0,8,00,40,42,0A,FE,FE,00,1A,
18445088912536341407,00000488,false,Rx,0,8,8D,1A,18,80,9E,FF,FF,91,
18445088912536341648,000002A0,false,Rx,0,8,00,00,00,64,00,00,A0,C4,
18445088912536341944,000004A0,false,Rx,0,8,3C,0A,4A,0A,32,0A,62,0A,
18445088912536342588,000000D2,false,Rx,0,5,30,34,00,00,04,00,00,00,
18445088912536342998,000000D0,false,Rx,0,6,6F,B9,11,38,0F,F0,00,00,
18445088912536343231,000000C2,false,Rx,0,8,44,80,AA,00,80,50,B6,41,
18445088912536343436,000003D0,false,Rx,0,6,00,00,08,00,C8,86,00,00,
18445088912536344948,0000048C,false,Rx,0,8,0F,08,07,00,00,00,00,00,
18445088912536346961,00000440,false,Rx,0,8,20,52,50,FE,78,00,24,02,
18445088912536347206,00000540,false,Rx,0,8,40,00,FF,00,FF,00,02,0F,
18445088912536347427,00000722,false,Rx,0,7,08,03,01,01,00,00,00,00,
18445088912536348808,00000497,false,Rx,0,8,00,60,00,00,74,46,00,60,
18445088912536349817,00000721,false,Rx,0,7,08,03,01,00,00,00,00,00,
18445088912536350293,00000280,false,Rx,0,8,01,18,34,0D,1A,00,1C,1A,
18445088912536350496,00000284,false,Rx,0,6,61,55,04,30,00,00,00,00,
18445088912536350736,000000AE,false,Rx,0,8,BB,B8,00,00,00,00,03,00,
18445088912536350902,00000050,false,Rx,0,4,00,B0,D4,64,00,00,00,00,
18445088912536351144,000001A0,false,Rx,0,8,00,40,4A,0A,FE,FE,00,1B,
18445088912536351379,00000288,false,Rx,0,8,4E,BD,78,00,00,50,ED,0C,
18445088912536351610,000001AC,false,Rx,0,8,71,15,10,00,69,21,FD,C1,
18445088912536351858,00000380,false,Rx,0,8,00,94,00,BF,00,00,00,06,
18445088912536352102,000002A0,false,Rx,0,8,00,00,00,64,00,00,B0,D4,
18445088912536352333,0000044C,false,Rx,0,8,CE,66,43,94,58,02,05,20,
18445088912536352563,000003A0,false,Rx,0,8,4B,05,DD,BC,E1,67,AA,03,
18445088912536352801,00000480,false,Rx,0,8,70,00,63,F3,7F,08,06,91,
18445088912536353033,00000488,false,Rx,0,8,BD,1A,18,80,9E,FF,FF,A1,
18445088912536353270,000000C2,false,Rx,0,8,22,80,EE,00,80,60,C2,0F,
18445088912536353466,000000D0,false,Rx,0,6,1D,CA,11,38,0E,F0,00,00,
18445088912536353701,0000048A,false,Rx,0,8,4E,1D,01,02,00,00,00,50,
18445088912536353934,000004A0,false,Rx,0,8,4C,0A,4A,0A,50,0A,62,0A,
18445088912536354182,00000550,false,Rx,0,8,40,C0,80,00,00,00,00,00,
18445088912536354414,00000368,false,Rx,0,8,4A,10,89,86,05,0A,5A,00,
18445088912536354648,00000320,false,Rx,0,8,20,40,12,41,0A,43,0A,81,
18445088912536354888,000004A8,false,Rx,0,8,48,00,07,80,00,20,50,BF,
18445088912536355122,00000588,false,Rx,0,8,E1,78,80,04,14,80,04,95,
18445088912536355367,0000058C,false,Rx,0,8,90,A0,21,00,00,00,00,00,
18445088912536355605,000005A0,false,Rx,0,8,7F,00,07,50,00,A4,1B,AB,
18445088912536355847,000005C0,false,Rx,0,8,0C,00,00,A6,2D,00,08,8F,
18445088912536356196,0000048C,false,Rx,0,8,0E,09,07,00,00,00,00,00,
18445088912536357037,00000440,false,Rx,0,8,20,52,50,FE,78,00,2C,02,
18445088912536357281,00000540,false,Rx,0,8,50,00,FF,00,FF,00,02,0F,
18445088912536358732,000003D4,false,Rx,0,8,32,80,32,80,08,00,00,00,
18445088912536360341,00000280,false,Rx,0,8,01,18,34,0D,1A,00,1B,1A,
18445088912536360589,00000380,false,Rx,0,8,00,94,00,BB,00,00,00,06,
18445088912536360828,000000AE,false,Rx,0,8,CB,C8,00,00,00,00,03,00,
18445088912536361064,00000488,false,Rx,0,8,AD,1A,18,80,9E,FF,FF,B1,
18445088912536361304,000001A0,false,Rx,0,8,00,40,42,0A,FE,FE,00,1C,
18445088912536361604,000002A0,false,Rx,0,8,00,00,00,64,00,00,C0,A4,
18445088912536361874,000004A0,false,Rx,0,8,3A,0A,4A,0A,5E,0A,50,0A,
18445088912536362118,000002B7,false,Rx,0,8,13,03,00,00,00,00,10,00,
18445088912536362832,000000D2,false,Rx,0,5,31,35,00,00,04,00,00,00,
18445088912536363065,000000C2,false,Rx,0,8,22,80,AA,00,80,70,18,43,
18445088912536363266,000000D0,false,Rx,0,6,17,DB,0A,38,0E,F0,00,00,
18445088912536363472,000003D0,false,Rx,0,6,00,00,08,00,C8,86,00,00,
18445088912536364267,0000056A,false,Rx,0,8,2F,03,10,20,10,0C,00,00,
18445088912536364513,00000366,false,Rx,0,8,50,00,00,00,00,00,80,D0,
18445088912536364747,00000520,false,Rx,0,8,F9,87,01,0F,1B,2E,EE,02,
18445088912536366976,00000440,false,Rx,0,8,20,52,50,FE,78,00,34,02,
18445088912536367218,00000540,false,Rx,0,8,60,00,FF,00,FF,00,02,0F,
18445088912536368278,0000038A,false,Rx,0,4,08,80,A8,20,00,00,00,00,
18445088912536369174,0000048C,false,Rx,0,8,0D,0A,07,00,00,00,00,00,
18445088912536370291,00000280,false,Rx,0,8,01,18,34,0D,1A,00,1B,1A,
18445088912536370492,00000284,false,Rx,0,6,62,56,04,30,00,00,00,00,
18445088912536370734,000000AE,false,Rx,0,8,DB,D8,00,00,00,00,03,00,
18445088912536370901,00000050,false,Rx,0,4,00,B0,E4,54,00,00,00,00,
18445088912536371141,000001A0,false,Rx,0,8,00,40,3A,0A,FE,FE,00,1D,
18445088912536371375,00000288,false,Rx,0,8,4E,BD,78,00,00,50,ED,0C,
18445088912536371610,000001AC,false,Rx,0,8,72,16,10,00,69,21,FD,C1,
18445088912536371851,00000380,false,Rx,0,8,00,94,00,BB,00,00,00,06,
18445088912536372092,000002A0,false,Rx,0,8,00,00,00,64,00,00,D0,B4,
18445088912536372326,0000044C,false,Rx,0,8,DF,67,43,94,58,02,05,30,
18445088912536372559,000003A0,false,Rx,0,8,BF,06,E0,C8,11,28,AB,03,
18445088912536372795,00000480,false,Rx,0,8,70,00,63,F3,7F,08,06,91,
18445088912536373031,00000488,false,Rx,0,8,DD,1A,18,80,9E,FF,FF,C1,
18445088912536373270,000000C2,false,Rx,0,8,22,80,00,00,80,80,DD,DD,
18445088912536373467,000000D0,false,Rx,0,6,29,EC,03,38,0E,F0,00,00,
18445088912536373693,000003D2,false,Rx,0,7,B0,02,33,80,01,00,00,00,
18445088912536373935,0000048A,false,Rx,0,8,7E,1D,01,02,00,00,00,60,
18445088912536374172,000004A0,false,Rx,0,8,2E,0A,46,0A,74,0A,54,0A,
18445088912536374404,00000588,false,Rx,0,8,E1,78,80,00,14,80,04,95,
18445088912536374634,00000368,false,Rx,0,8,4B,11,89,86,05,0A,5A,00,
18445088912536374876,000004A8,false,Rx,0,8,48,00,03,80,00,20,60,8B,
18445088912536375110,000005C0,false,Rx,0,8,0D,00,00,A6,2D,00,08,8E,
18445088912536375349,000005A0,false,Rx,0,8,7F,F4,06,60,00,A7,1B,AB,
18445088912536375582,000005E0,false,Rx,0,8,30,00,40,1C,49,83,07,FB,
18445088912536375816,00000320,false,Rx,0,8,20,40,12,49,0A,44,0A,81,
18445088912536376036,00000723,false,Rx,0,7,08,03,05,00,02,00,00,00,
18445088912536376285,000003B2,false,Rx,0,8,00,80,47,02,00,00,00,00,
18445088912536376991,000005E8,false,Rx,0,8,00,00,FF,FF,00,0C,00,00,
18445088912536377229,00000440,false,Rx,0,8,20,52,50,FE,78,00,3C,02,
18445088912536377473,00000540,false,Rx,0,8,70,00,FF,00,FF,00,02,0F,
18445088912536377801,000005F7,false,Rx,0,4,00,00,00,00,00,00,00,00,
18445088912536378466,000003D4,false,Rx,0,8,2F,81,2E,80,08,00,00,00,
18445088912536378875,0000048C,false,Rx,0,8,0C,0B,07,00,00,00,00,00,
18445088912536380359,00000280,false,Rx,0,8,01,18,28,0D,1A,00,1B,1A,
18445088912536380603,00000380,false,Rx,0,8,00,94,00,BB,00,00,00,06,
18445088912536380848,000000AE,false,Rx,0,8,EB,E8,00,00,00,00,03,00,
18445088912536381079,00000488,false,Rx,0,8,CD,1A,18,80,9E,FF,FF,D1,
18445088912536381319,000001A0,false,Rx,0,8,00,40,36,0A,FE,FE,00,1E,
18445088912536381597,000002A0,false,Rx,0,8,00,00,00,64,00,00,E0,84,
18445088912536381867,000004A0,false,Rx,0,8,2E,0A,40,0A,70,0A,54,0A,
18445088912536383003,000000D0,false,Rx,0,6,33,FD,08,38,0E,F0,00,00,
18445088912536383240,000000C2,false,Rx,0,8,22,80,00,00,80,90,F8,CD,
18445088912536383424,000000D2,false,Rx,0,5,32,36,00,00,04,00,00,00,
18445088912536383630,000003D0,false,Rx,0,6,00,00,08,00,C8,86,00,00,
18445088912536383866,000006DA,false,Rx,0,8,80,08,32,83,78,07,FE,E1,
18445088912536386963,00000440,false,Rx,0,8,20,52,50,FE,78,00,44,02,
18445088912536387200,00000540,false,Rx,0,8,80,00,FF,00,FF,00,02,56,
18445088912536390693,00000280,false,Rx,0,8,01,18,28,0D,1A,00,1B,1A,
18445088912536390860,00000050,false,Rx,0,4,00,B0,F4,44,00,00,00,00,
18445088912536391106,000000AE,false,Rx,0,8,FB,F8,00,00,00,00,03,00,
18445088912536391311,00000284,false,Rx,0,6,63,57,04,30,00,00,00,00,
18445088912536391553,000001A0,false,Rx,0,8,00,40,3A,0A,FE,FE,00,1F,
18445088912536391787,00000288,false,Rx,0,8,4E,BD,78,00,00,50,ED,0C,
18445088912536392036,000001AB,false,Rx,0,8,03,03,00,00,00,00,00,00,
18445088912536392278,00000380,false,Rx,0,8,00,94,00,BB,00,00,00,06,
18445088912536392509,000001AC,false,Rx,0,8,8D,17,10,00,69,21,00,C2,
18445088912536392742,0000044C,false,Rx,0,8,AD,65,43,94,58,02,05,40,
18445088912536392984,000002A0,false,Rx,0,8,00,00,00,64,00,00,F0,94,
18445088912536393220,000000C2,false,Rx,0,8,22,80,00,00,80,A0,97,BD,
18445088912536393419,000000D0,false,Rx,0,6,C7,0E,0F,38,0E,F0,00,00,
18445088912536393656,000003A0,false,Rx,0,8,31,07,E3,D4,41,E8,AB,03,
18445088912536393893,00000480,false,Rx,0,8,70,00,70,F3,7F,08,06,82,
18445088912536394131,00000488,false,Rx,0,8,FD,1A,18,80,9E,FF,FF,E1,
18445088912536394367,0000048A,false,Rx,0,8,6E,1D,01,02,00,00,00,70,
18445088912536394600,00000368,false,Rx,0,8,48,12,89,86,05,0A,5A,00,
18445088912536394830,00000320,false,Rx,0,8,20,40,12,39,0A,45,0A,81,
18445088912536395073,0000048C,false,Rx,0,8,0B,0C,07,00,00,00,00,00,
18445088912536395311,000004A0,false,Rx,0,8,32,0A,42,0A,48,0A,54,0A,
18445088912536395540,00000588,false,Rx,0,8,E1,78,80,83,14,80,04,95,
18445088912536395780,000004A8,false,Rx,0,8,48,00,07,80,00,20,70,9F,
18445088912536395896,00000572,false,Rx,0,1,07,00,00,00,00,00,00,00,
18445088912536396132,000005A0,false,Rx,0,8,7F,F4,06,70,00,AA,1B,AB,
18445088912536396386,000005B7,false,Rx,0,8,D7,D7,00,00,00,00,00,00,
18445088912536397058,00000440,false,Rx,0,8,20,52,50,FE,78,00,4C,02,
18445088912536397303,00000397,false,Rx,0,8,05,0D,08,00,00,00,00,00,
18445088912536397542,00000540,false,Rx,0,8,90,00,FF,00,FF,00,02,56,
18445088912536398011,0000038A,false,Rx,0,4,18,80,B8,20,00,00,00,00,
18445088912536398428,000005C0,false,Rx,0,8,0E,00,00,A6,2D,00,08,8D,
18445088912536398670,000003D4,false,Rx,0,8,2C,82,2E,80,08,00,00,00,
18445088912536400412,00000280,false,Rx,0,8,01,18,28,0D,1A,00,1B,1A,
18445088912536400658,000000AE,false,Rx,0,8,0B,08,00,00,00,00,03,00,
18445088912536400904,00000380,false,Rx,0,8,00,94,00,BC,00,00,00,06,
18445088912536401151,000001A0,false,Rx,0,8,00,40,4A,0A,FE,FE,00,10,
18445088912536401389,00000488,false,Rx,0,8,ED,1A,18,80,9E,FF,FF,F1,
18445088912536401633,000002A0,false,Rx,0,8,00,00,00,64,00,00,00,64,
18445088912536401916,000004A0,false,Rx,0,8,58,0A,3E,0A,3C,0A,50,0A,
18445088912536402698,000000D2,false,Rx,0,5,33,37,00,00,04,00,00,00,
18445088912536403009,000000D0,false,Rx,0,6,C1,1F,18,38,0E,F0,00,00,
18445088912536403245,000000C2,false,Rx,0,8,22,80,00,00,80,B0,B2,AD,
18445088912536403452,000003D0,false,Rx,0,6,00,00,08,00,C8,86,00,00,
18445088912536404259,0000056A,false,Rx,0,8,3F,03,10,20,10,0C,00,10,
18445088912536404508,00000366,false,Rx,0,8,51,01,00,00,00,00,80,D0,
18445088912536405870,000005D6,false,Rx,0,5,00,00,00,00,00,00,00,00,
18445088912536406960,00000440,false,Rx,0,8,20,52,50,FE,78,00,54,02,
18445088912536407199,00000540,false,Rx,0,8,A0,00,FF,00,FF,00,02,56,
18445088912536407944,0000048C,false,Rx,0,8,0A,0D,07,00,00,00,00,00,
18445088912536410289,00000280,false,Rx,0,8,01,18,28,0D,1A,00,1B,1A,
18445088912536410492,00000284,false,Rx,0,6,6C,58,04,30,00,00,00,00,
18445088912536410737,000000AE,false,Rx,0,8,1B,18,00,00,00,00,03,00,
18445088912536410910,00000050,false,Rx,0,4,00,B0,04,B4,00,00,00,00,
18445088912536411149,000001A0,false,Rx,0,8,00,40,5A,0A,FE,FE,00,11,
18445088912536411383,00000288,false,Rx,0,8,8A,BD,78,00,00,50,ED,0C,
18445088912536411621,000001AC,false,Rx,0,8,7C,18,10,00,69,21,FD,C1,
18445088912536411867,00000380,false,Rx,0,8,00,94,00,BC,00,00,00,06,
18445088912536412113,000002A0,false,Rx,0,8,00,00,00,64,00,00,10,74,
18445088912536412344,0000044C,false,Rx,0,8,B9,61,43,94,58,02,05,50,
18445088912536412578,000003A0,false,Rx,0,8,78,08,E6,E0,71,A8,AC,03,
18445088912536412822,000002B7,false,Rx,0,8,14,04,00,00,00,00,10,00,
18445088912536413026,000000D0,false,Rx,0,6,F9,20,1C,38,0D,F0,00,00,
18445088912536413262,000000C2,false,Rx,0,8,22,80,CC,00,80,C0,67,D1,
18445088912536413500,00000480,false,Rx,0,8,84,00,7D,F3,7F,08,06,7B,
18445088912536413734,00000488,false,Rx,0,8,F8,1A,18,80,9E,FF,1A,01,
18445088912536413974,0000048A,false,Rx,0,8,9E,1D,01,02,00,00,00,80,
18445088912536414207,000004A0,false,Rx,0,8,72,0A,46,0A,30,0A,50,0A,
18445088912536414433,00000368,false,Rx,0,8,49,13,89,87,05,0B,5A,00,
18445088912536414677,000004A8,false,Rx,0,8,30,00,07,80,00,20,80,17,
18445088912536414913,00000320,false,Rx,0,8,20,40,12,39,0A,46,0A,81,
18445088912536415147,00000588,false,Rx,0,8,E1,78,80,00,14,80,04,95,
18445088912536415380,000005A0,false,Rx,0,8,7F,0A,07,80,00,AD,1B,AB,
18445088912536417014,00000440,false,Rx,0,8,20,52,50,FE,78,00,5C,02,
18445088912536417254,00000540,false,Rx,0,8,B0,00,FF,00,FF,00,02,56,
18445088912536417812,000005C0,false,Rx,0,8,0F,00,00,A6,2D,00,08,8C,
18445088912536418259,0000048C,false,Rx,0,8,09,0E,07,00,00,00,00,00,
18445088912536420304,000003D4,false,Rx,0,8,2D,83,2E,80,08,00,00,00,
18445088912536420542,00000280,false,Rx,0,8,01,18,28,0D,1A,00,1B,1A,
18445088912536420790,000000AE,false,Rx,0,8,2B,28,00,00,00,00,03,00,
18445088912536421033,00000380,false,Rx,0,8,00,94,00,BB,00,00,00,06,
18445088912536421275,000001A0,false,Rx,0,8,00,40,50,0A,FE,FE,00,12,
18445088912536421508,00000488,false,Rx,0,8,ED,1A,18,80,9E,FF,1F,11,
18445088912536421755,000002A0,false,Rx,0,8,00,00,00,64,00,00,20,44,
18445088912536422007,000004A0,false,Rx,0,8,56,0A,4A,0A,36,0A,32,0A,
18445088912536423011,000000D0,false,Rx,0,6,E2,31,17,38,0C,F0,00,00,
18445088912536423247,000000C2,false,Rx,0,8,22,80,CC,00,80,D0,42,C1,
18445088912536423456,000003D0,false,Rx,0,6,00,00,08,00,C8,86,00,00,
18445088912536423677,000003D2,false,Rx,0,7,B1,03,33,80,01,00,00,00,
18445088912536424129,000000D2,false,Rx,0,5,3C,38,00,00,04,00,00,00,
18445088912536425781,00000390,false,Rx,0,8,03,00,50,00,40,00,00,08,
18445088912536426040,00000392,false,Rx,0,8,08,00,04,21,00,17,80,00,
18445088912536426248,00000570,false,Rx,0,5,47,20,AC,00,00,00,00,00,
18445088912536426503,000005D0,false,Rx,0,8,C0,04,61,8F,39,59,C0,00,
18445088912536427007,00000440,false,Rx,0,8,20,52,50,FE,78,00,64,02,
18445088912536427248,00000540,false,Rx,0,8,C0,00,FF,00,FF,00,02,0F,
18445088912536428537,0000038A,false,Rx,0,4,68,80,C8,20,00,00,00,00,
18445088912536430374,00000280,false,Rx,0,8,01,18,28,0D,1A,00,1B,1A,
18445088912536430578,00000284,false,Rx,0,6,6D,59,04,30,00,00,00,00,
18445088912536430821,000000AE,false,Rx,0,8,3B,38,00,00,00,00,03,00,
18445088912536430993,00000050,false,Rx,0,4,00,B0,14,A4,00,00,00,00,
18445088912536431233,000001A0,false,Rx,0,8,00,40,48,0A,FE,FE,00,13,
18445088912536431467,00000288,false,Rx,0,8,8A,BD,78,00,00,50,ED,0C,
18445088912536431704,000001AC,false,Rx,0,8,7D,19,10,00,69,21,FD,C1,
18445088912536431949,00000380,false,Rx,0,8,00,94,00,BB,00,00,00,06,
18445088912536432191,000002A0,false,Rx,0,8,00,00,00,64,00,00,30,54,
18445088912536432423,0000044C,false,Rx,0,8,8D,65,43,94,58,02,05,60,
18445088912536432649,000003A0,false,Rx,0,8,6B,09,E9,EC,A1,68,AD,03,
18445088912536432887,00000480,false,Rx,0,8,84,00,7D,F3,7F,08,06,7B,
18445088912536433121,000000C2,false,Rx,0,8,22,80,CC,00,80,E0,2D,B1,
18445088912536433319,000000D0,false,Rx,0,6,8D,42,0B,38,0C,F0,00,00,
18445088912536433552,00000488,false,Rx,0,8,40,1A,18,80,9E,FF,82,21,
18445088912536433790,0000048A,false,Rx,0,8,8E,1D,01,02,00,00,00,90,
18445088912536434039,0000048C,false,Rx,0,8,08,0F,07,00,00,00,00,00,
18445088912536434268,00000368,false,Rx,0,8,4E,14,89,87,05,0B,5A,00,
18445088912536434498,000004A0,false,Rx,0,8,44,0A,4C,0A,58,0A,28,0A,
18445088912536434734,00000320,false,Rx,0,8,20,40,12,57,0A,47,0A,81,
18445088912536434979,000004A8,false,Rx,0,8,30,00,03,80,00,20,90,03,
18445088912536435213,00000588,false,Rx,0,8,E1,78,80,00,14,80,04,95,
18445088912536435449,000005A0,false,Rx,0,8,7F,FE,06,90,00,B0,1B,AB,
18445088912536435639,000006DA,false,Rx,0,5,C0,C0,00,00,00,00,00,00,
18445088912536436094,000005DC,false,Rx,0,8,77,14,72,7F,1D,00,80,4D,
18445088912536437018,00000440,false,Rx,0,8,20,52,50,FE,78,00,6C,02,
18445088912536437259,00000540,false,Rx,0,8,D0,00,FF,00,FF,00,02,0F,
18445088912536438653,000003D4,false,Rx,0,8,23,84,27,80,08,00,00,00,
18445088912536440356,00000280,false,Rx,0,8,01,18,28,0D,1A,00,1B,1A,
18445088912536440597,000000AE,false,Rx,0,8,4B,48,00,00,00,00,03,00,
18445088912536440842,00000380,false,Rx,0,8,00,94,00,BC,00,00,00,06,
18445088912536441086,000001A0,false,Rx,0,8,00,40,32,0A,FE,FE,00,14,
18445088912536441317,00000488,false,Rx,0,8,D5,1A,18,80,9E,FF,07,31,
18445088912536441558,000002A0,false,Rx,0,8,00,00,00,64,00,00,40,24,
18445088912536441803,000004A0,false,Rx,0,8,22,0A,42,0A,70,0A,26,0A,
18445088912536442046,000005C0,false,Rx,0,8,00,00,00,A6,2D,00,08,83,
18445088912536442489,0000048C,false,Rx,0,8,17,10,07,00,00,00,00,00,
18445088912536442753,000000D2,false,Rx,0,5,3D,39,00,00,04,00,00,00,
18445088912536443011,000000D0,false,Rx,0,6,9D,53,0A,38,0C,F0,00,00,
18445088912536443243,000000C2,false,Rx,0,8,22,80,44,80,80,F0,18,A9,
18445088912536443449,000003D0,false,Rx,0,6,00,00,08,00,C8,86,00,00,
18445088912536444266,0000056A,false,Rx,0,8,0F,03,10,20,10,0C,00,20,
18445088912536444506,00000366,false,Rx,0,8,52,02,00,00,00,00,80,D0,
18445088912536446956,00000440,false,Rx,0,8,20,52,50,FE,78,00,74,02,
18445088912536447200,00000540,false,Rx,0,8,E0,00,FF,00,FF,00,02,0F,
18445088912536448464,00000497,false,Rx,0,8,00,60,00,00,74,46,00,60,
18445088912536450302,00000280,false,Rx,0,8,01,18,18,0D,1A,00,1C,1A,
18445088912536450504,00000284,false,Rx,0,6,6E,5A,04,30,00,00,00,00,
18445088912536450745,000000AE,false,Rx,0,8,5B,58,00,00,00,00,03,00,
18445088912536450916,00000050,false,Rx,0,4,00,B0,24,94,00,00,00,00,
18445088912536451159,000001A0,false,Rx,0,8,00,40,3A,0A,FE,FE,00,15,
18445088912536451393,00000288,false,Rx,0,8,8A,BD,78,00,00,50,ED,0C,
18445088912536451628,000001AC,false,Rx,0,8,80,1A,10,00,69,21,00,C2,
18445088912536451873,00000380,false,Rx,0,8,00,94,00,BC,00,00,00,06,
18445088912536452118,000002A0,false,Rx,0,8,00,00,00,64,00,00,50,34,
18445088912536452352,0000044C,false,Rx,0,8,9F,67,43,94,58,02,05,70,
18445088912536452582,000003A0,false,Rx,0,8,4A,0A,EC,F8,D1,28,AE,03,
18445088912536452819,00000480,false,Rx,0,8,84,00,8B,F3,7F,08,06,8D,
18445088912536453015,000000D0,false,Rx,0,6,AF,64,0F,38,0C,F0,00,00,
18445088912536453254,000000C2,false,Rx,0,8,22,80,22,80,80,00,F3,BB,
18445088912536453486,00000488,false,Rx,0,8,84,1A,18,80,9E,FF,26,41,
18445088912536453729,0000048A,false,Rx,0,8,BE,1D,01,02,00,00,00,A0,
18445088912536453979,0000048C,false,Rx,0,8,06,01,07,00,00,00,00,00,
18445088912536454213,000004A0,false,Rx,0,8,32,0A,42,0A,5E,0A,2C,0A,
18445088912536454443,00000368,false,Rx,0,8,4F,15,89,87,05,0B,5A,00,
18445088912536454677,00000320,false,Rx,0,8,20,40,12,47,0A,48,0A,81,
18445088912536454921,000004A8,false,Rx,0,8,30,00,07,80,00,20,A0,37,
18445088912536455158,00000588,false,Rx,0,8,E1,81,80,84,14,80,04,95,
18445088912536455401,0000058C,false,Rx,0,8,90,A0,21,00,00,00,00,00,
18445088912536455637,0000058F,false,Rx,0,8,B8,FD,FF,7F,00,00,00,92,
18445088912536455873,000005A0,false,Rx,0,8,7F,F4,06,A0,00,B3,1B,AB,
18445088912536456120,000005AA,false,Rx,0,8,00,00,80,08,00,00,00,00,
18445088912536457034,00000440,false,Rx,0,8,20,52,50,FE,78,00,7C,02,
18445088912536457276,00000540,false,Rx,0,8,F0,00,FF,00,FF,00,02,0F,
18445088912536457630,0000038A,false,Rx,0,4,78,80,D8,20,00,00,00,00,
18445088912536458525,000003D4,false,Rx,0,8,22,85,27,80,08,00,00,00,
18445088912536460348,00000280,false,Rx,0,8,01,18,18,0D,1B,00,1C,1B,
18445088912536460596,00000380,false,Rx,0,8,00,94,00,BF,00,00,00,06,
18445088912536460837,000000AE,false,Rx,0,8,6B,68,00,00,00,00,03,00,
18445088912536461073,00000488,false,Rx,0,8,4C,1B,18,80,9E,FF,FF,51,
18445088912536461315,000001A0,false,Rx,0,8,00,40,3E,0A,FE,FE,00,16,
18445088912536461555,000005C0,false,Rx,0,8,01,00,00,A6,2D,00,08,82,
18445088912536461799,000002A0,false,Rx,0,8,00,00,00,64,00,00,60,04,
18445088912536462045,0000048C,false,Rx,0,8,05,02,07,00,00,00,00,00,
18445088912536462290,000002B7,false,Rx,0,8,15,05,00,00,00,00,10,00,
18445088912536462524,000004A0,false,Rx,0,8,50,0A,2C,0A,5A,0A,22,0A,
18445088912536462948,000000D2,false,Rx,0,5,3E,3A,00,00,04,00,00,00,
18445088912536463186,000000C2,false,Rx,0,8,22,80,22,00,80,10,17,2B,
18445088912536463386,000000D0,false,Rx,0,6,A6,75,17,38,0C,F0,00,00,
18445088912536463592,000003D0,false,Rx,0,6,00,00,08,00,C8,86,00,00,
18445088912536464539,00000420,false,Rx,0,8,9C,A4,AC,00,18,41,FF,00,
18445088912536466961,00000440,false,Rx,0,8,20,52,50,FE,78,00,04,02,
18445088912536467204,00000540,false,Rx,0,8,00,00,FF,00,FF,00,02,56,
18445088912536470304,00000280,false,Rx,0,8,01,19,18,0D,1A,00,1C,1A,
18445088912536470508,00000284,false,Rx,0,6,6F,5B,04,30,00,00,00,00,
18445088912536470746,000000AE,false,Rx,0,8,7B,78,00,00,00,00,03,00,
18445088912536470915,00000050,false,Rx,0,4,00,B0,34,84,00,00,00,00,
18445088912536471156,000001A0,false,Rx,0,8,00,40,46,0A,FE,FE,00,17,
18445088912536471390,00000288,false,Rx,0,8,8A,BD,78,00,00,50,ED,0C,
18445088912536471626,000001AC,false,Rx,0,8,7F,1B,10,00,69,21,FD,C1,
18445088912536471873,00000380,false,Rx,0,8,00,94,00,C2,00,00,00,06,
18445088912536472114,000002A0,false,Rx,0,8,00,00,00,64,00,00,70,14,
18445088912536472348,0000044C,false,Rx,0,8,6E,66,43,94,58,02,05,80,
18445088912536472578,000003A0,false,Rx,0,8,B9,0B,F0,04,02,E9,AE,03,
18445088912536472816,00000480,false,Rx,0,8,84,00,8B,F3,7F,08,06,8D,
18445088912536473011,000000D0,false,Rx,0,6,62,86,27,38,0B,F0,00,00,
18445088912536473245,000000C2,false,Rx,0,8,22,80,66,00,80,20,87,D7,
18445088912536473472,000003D2,false,Rx,0,7,B6,04,33,80,01,00,00,00,
18445088912536473707,00000488,false,Rx,0,8,7C,1A,19,80,9E,FF,FF,61,
18445088912536473945,0000048A,false,Rx,0,8,AE,1D,01,02,00,00,00,B0,
18445088912536474176,000004A0,false,Rx,0,8,66,0A,2A,0A,4E,0A,24,0A,
18445088912536474409,00000368,false,Rx,0,8,4C,16,89,87,05,0B,5A,00,
18445088912536474653,000004A8,false,Rx,0,8,1B,00,03,80,00,20,B0,08,
18445088912536474883,00000320,false,Rx,0,8,20,40,12,39,0A,49,0A,81,
18445088912536475124,00000588,false,Rx,0,8,E1,81,80,00,14,80,04,95,
18445088912536475359,000005A0,false,Rx,0,8,7F,FC,06,B0,00,B6,1B,AB,
18445088912536475596,000005E0,false,Rx,0,8,30,00,40,1C,49,83,07,FB,
18445088912536475845,0000048C,false,Rx,0,8,04,03,07,00,00,00,00,00,
18445088912536476091,000003B2,false,Rx,0,8,00,80,47,02,00,00,00,00,
18445088912536477042,00000440,false,Rx,0,8,20,52,50,FE,78,00,0C,02,
18445088912536477284,00000540,false,Rx,0,8,10,00,FF,00,FF,00,02,56,
18445088912536478437,000003D4,false,Rx,0,8,21,86,27,80,08,00,00,00,
18445088912536480596,000000AE,false,Rx,0,8,8B,88,00,00,00,00,03,00,
18445088912536480847,000001A0,false,Rx,0,8,00,40,48,0A,FE,FE,00,18,
18445088912536481085,00000280,false,Rx,0,8,01,19,14,0D,1A,00,1C,1A,
18445088912536481327,000002A0,false,Rx,0,8,00,00,00,64,00,00,80,E4,
18445088912536481578,00000380,false,Rx,0,8,00,94,00,C0,00,00,00,06,
18445088912536481814,00000488,false,Rx,0,8,6C,1A,19,80,9E,FF,FF,71,
18445088912536482048,000004A0,false,Rx,0,8,66,0A,2E,0A,2E,0A,12,0A,
18445088912536482436,000000D2,false,Rx,0,5,3F,3B,00,00,04,00,00,00,
18445088912536482996,000000D0,false,Rx,0,6,72,97,26,38,0B,F0,00,00,
18445088912536483229,000000C2,false,Rx,0,8,22,80,CC,00,80,30,9B,61,
18445088912536483434,000003D0,false,Rx,0,6,01,00,08,00,C8,86,00,00,
18445088912536484257,0000056A,false,Rx,0,8,1F,03,10,20,10,0C,00,30,
18445088912536484505,00000366,false,Rx,0,8,53,03,00,00,00,00,80,D0,
18445088912536484734,000005D2,false,Rx,0,8,00,AD,89,F7,A2,31,56,57,
18445088912536485649,000005C0,false,Rx,0,8,02,00,00,A6,2D,00,08,81,
18445088912536486105,0000048C,false,Rx,0,8,03,04,07,00,00,00,00,00,
18445088912536486956,00000440,false,Rx,0,8,20,52,50,FE,78,00,14,02,
18445088912536487198,00000540,false,Rx,0,8,20,00,FF,00,FF,00,02,56,
18445088912536488441,0000038A,false,Rx,0,4,48,80,E8,20,00,00,00,00,
18445088912536490307,00000280,false,Rx,0,8,01,19,14,0D,1A,00,1C,1A,
18445088912536490509,00000284,false,Rx,0,6,68,5C,04,30,00,00,00,00,
18445088912536490749,000000AE,false,Rx,0,8,9B,98,00,00,00,00,03,00,
18445088912536490921,00000050,false,Rx,0,4,00,B0,44,F4,00,00,00,00,
18445088912536491164,000001A0,false,Rx,0,8,00,40,3E,0A,FE,FE,00,19,
18445088912536491399,00000288,false,Rx,0,8,E8,BD,78,00,00,50,ED,0C,
18445088912536491633,000001AC,false,Rx,0,8,74,1C,10,00,65,21,FD,C1,
18445088912536491881,00000380,false,Rx,0,8,00,94,00,BF,00,00,00,06,
18445088912536492124,000002A0,false,Rx,0,8,00,00,00,64,00,00,90,F4,
18445088912536492356,0000044C,false,Rx,0,8,7D,65,43,94,58,02,05,90,
18445088912536492588,000003A0,false,Rx,0,8,D8,0C,F3,10,32,A9,AF,03,
18445088912536492825,00000480,false,Rx,0,8,C0,00,99,F3,7F,08,06,DB,
18445088912536493026,000000D0,false,Rx,0,6,74,A8,1F,38,0B,F0,00,00,
18445088912536493265,000000C2,false,Rx,0,8,22,80,88,00,80,40,9F,95,
18445088912536493496,00000488,false,Rx,0,8,9D,1A,18,80,9E,FF,FF,81,
18445088912536493738,0000048A,false,Rx,0,8,DE,1D,01,02,00,00,00,C0,
18445088912536493969,000004A0,false,Rx,0,8,44,0A,38,0A,2A,0A,12,0A,
18445088912536494206,00000588,false,Rx,0,8,E1,81,80,81,14,80,04,95,
18445088912536494437,00000368,false,Rx,0,8,4D,17,89,86,05,0A,5A,00,
18445088912536494672,00000320,false,Rx,0,8,20,40,12,43,0A,4A,0A,81,
18445088912536494913,000004A8,false,Rx,0,8,30,00,03,80,00,20,C0,53,
18445088912536495204,000005A0,false,Rx,0,8,7F,F8,06,C0,00,B9,1B,AB,
18445088912536495447,000005CA,false,Rx,0,8,0F,0F,00,00,00,00,00,00,
18445088912536495691,000005B7,false,Rx,0,8,D8,D8,00,00,00,00,00,00,
18445088912536495938,0000048C,false,Rx,0,8,02,05,07,00,00,00,00,00,
18445088912536496052,00000572,false,Rx,0,1,07,00,00,00,00,00,00,00,
18445088912536496998,00000440,false,Rx,0,8,20,52,50,FE,78,00,1C,02,
18445088912536497248,00000397,false,Rx,0,8,06,0E,08,00,00,00,00,00,
18445088912536497491,00000540,false,Rx,0,8,30,00,FF,00,FF,00,02,56,
18445088912536500078,000003D4,false,Rx,0,8,23,87,24,80,08,00,00,00,
18445088912536500531,000000AE,false,Rx,0,8,AB,A8,00,00,00,00,03,00,
18445088912536500772,00000280,false,Rx,0,8,01,18,14,0D,1A,00,1C,1A,
18445088912536501011,000001A0,false,Rx,0,8,00,40,42,0A,FE,FE,00,1A,
18445088912536501260,00000380,false,Rx,0,8,00,94,00,BE,00,00,00,06,
18445088912536501501,000002A0,false,Rx,0,8,00,00,00,64,00,00,A0,C4,
18445088912536501738,00000488,false,Rx,0,8,8D,1A,18,80,9E,FF,FF,91,
18445088912536501972,000004A0,false,Rx,0,8,2E,0A,56,0A,FE,09,1C,0A,
18445088912536502620,000000D2,false,Rx,0,5,38,3C,00,00,04,00,00,00,
18445088912536502998,000000D0,false,Rx,0,6,6A,B9,10,38,0B,F0,00,00,
18445088912536503231,000000C2,false,Rx,0,8,22,80,44,00,80,50,94,C9,
18445088912536503436,000003D0,false,Rx,0,6,00,00,08,00,C8,86,00,00,
18445088912536505042,000005C0,false,Rx,0,8,03,00,00,A6,2D,00,08,80,
18445088912536506410,000005D6,false,Rx,0,5,00,00,00,00,00,00,00,00,
18445088912536506960,00000440,false,Rx,0,8,20,52,50,FE,78,00,24,02,
18445088912536507201,00000540,false,Rx,0,8,40,00,FF,00,FF,00,02,0F,
18445088912536509714,0000048C,false,Rx,0,8,01,06,07,00,00,00,00,00,
18445088912536510323,00000280,false,Rx,0,8,01,18,14,0D,1A,00,1C,1A,
18445088912536510527,00000284,false,Rx,0,6,69,5D,04,30,00,00,00,00,
18445088912536510767,000000AE,false,Rx,0,8,BB,B8,00,00,00,00,03,00,
18445088912536510939,00000050,false,Rx,0,4,00,B0,54,E4,00,00,00,00,
18445088912536511182,000001A0,false,Rx,0,8,00,40,42,0A,FE,FE,00,1B,
18445088912536511418,00000288,false,Rx,0,8,E8,BD,78,00,00,50,ED,0C,
18445088912536511650,000001AC,false,Rx,0,8,75,1D,10,00,65,21,FD,C1,
18445088912536511898,00000380,false,Rx,0,8,00,94,00,BE,00,00,00,06,
18445088912536512142,000002A0,false,Rx,0,8,00,00,00,64,00,00,B0,D4,
18445088912536512388,000002B7,false,Rx,0,8,16,06,00,00,00,00,10,00,
18445088912536512627,000003A0,false,Rx,0,8,5F,0D,F6,1C,62,69,B0,03,
18445088912536512857,0000044C,false,Rx,0,8,4D,65,43,94,58,02,05,A0,
18445088912536513093,000000C2,false,Rx,0,8,22,80,44,80,80,60,3A,39,
18445088912536513298,000000D0,false,Rx,0,6,03,CA,0A,38,0B,F0,00,00,
18445088912536513531,00000480,false,Rx,0,8,C0,00,99,F3,7F,08,06,DB,
18445088912536513765,00000488,false,Rx,0,8,BD,1A,18,80,9E,FF,FF,A1,
18445088912536514004,0000048A,false,Rx,0,8,CE,1D,01,02,00,00,00,D0,
18445088912536514244,000004A0,false,Rx,0,8,24,0A,62,0A,04,0A,20,0A,
18445088912536514474,00000368,false,Rx,0,8,42,18,89,86,05,0A,5A,00,
18445088912536514718,000004A8,false,Rx,0,8,2D,00,03,80,00,20,D0,5E,
18445088912536514954,00000320,false,Rx,0,8,20,40,12,3D,0A,4B,0A,81,
18445088912536515190,00000588,false,Rx,0,8,E1,81,80,00,14,80,04,95,
18445088912536515428,000005A0,false,Rx,0,8,7F,FA,06,D0,00,BC,1B,AB,
18445088912536517009,00000440,false,Rx,0,8,20,52,50,FE,78,00,2C,02,
18445088912536517252,00000540,false,Rx,0,8,50,00,FF,00,FF,00,02,0F,
18445088912536518138,0000038A,false,Rx,0,4,58,80,F8,20,00,00,00,00,
18445088912536518761,000003D4,false,Rx,0,8,2C,88,24,80,08,00,00,00,
18445088912536519407,0000048C,false,Rx,0,8,00,07,07,00,00,00,00,00,
18445088912536520441,00000280,false,Rx,0,8,01,18,04,0D,1A,00,1C,1A,
18445088912536520684,000000AE,false,Rx,0,8,CB,C8,00,00,00,00,03,00,
18445088912536520931,00000380,false,Rx,0,8,00,94,00,BF,00,00,00,06,
18445088912536521173,000001A0,false,Rx,0,8,00,40,36,0A,FE,FE,00,1C,
18445088912536521410,00000488,false,Rx,0,8,AD,1A,18,80,9E,FF,FF,B1,
18445088912536521654,000002A0,false,Rx,0,8,00,00,00,64,00,00,C0,A4,
18445088912536521911,000004A0,false,Rx,0,8,20,0A,4E,0A,28,0A,32,0A,
18445088912536522991,000000D0,false,Rx,0,6,15,DB,0D,38,0B,F0,00,00,
18445088912536523226,000000C2,false,Rx,0,8,22,80,66,80,80,70,F7,07,
18445088912536523431,000003D0,false,Rx,0,6,00,00,08,00,C8,86,00,00,
18445088912536523652,000003D2,false,Rx,0,7,A7,15,33,80,01,00,00,00,
18445088912536524281,000000D2,false,Rx,0,5,39,3D,00,00,04,00,00,00,
18445088912536524584,00000366,false,Rx,0,8,54,04,00,00,00,00,80,D0,
18445088912536524818,0000056A,false,Rx,0,8,6F,03,10,20,10,0C,00,40,
18445088912536525816,00000390,false,Rx,0,8,03,00,50,00,40,00,00,08,
18445088912536526075,00000392,false,Rx,0,8,08,00,04,21,00,17,80,00,
18445088912536526342,00000393,false,Rx,0,8,92,00,00,00,00,00,00,00,
18445088912536526550,00000570,false,Rx,0,5,47,20,AC,00,00,00,00,00,
18445088912536526804,000005D0,false,Rx,0,8,C0,04,61,8F,39,59,C0,00,
18445088912536527040,00000440,false,Rx,0,8,20,52,50,FE,78,00,34,02,
18445088912536527282,00000540,false,Rx,0,8,60,00,FF,00,FF,00,02,0F,
18445088912536529271,000005C0,false,Rx,0,8,04,00,00,A6,2D,00,08,87,
18445088912536529719,0000048C,false,Rx,0,8,0F,08,07,00,00,00,00,00,
18445088912536530382,00000280,false,Rx,0,8,01,18,04,0D,1A,00,1C,1A,
18445088912536530585,00000284,false,Rx,0,6,6A,5E,04,30,00,00,00,00,
18445088912536530827,000000AE,false,Rx,0,8,DB,D8,00,00,00,00,03,00,
18445088912536530999,00000050,false,Rx,0,4,00,B0,64,D4,00,00,00,00,
18445088912536531241,000001A0,false,Rx,0,8,00,40,36,0A,FE,FE,00,1D,
18445088912536531475,00000288,false,Rx,0,8,E8,BD,78,00,00,50,ED,0C,
18445088912536531716,000001AC,false,Rx,0,8,74,1E,10,00,60,21,FA,C1,
18445088912536531965,00000380,false,Rx,0,8,00,94,00,BE,00,00,00,06,
18445088912536532207,000002A0,false,Rx,0,8,00,00,00,64,00,00,D0,B4,
18445088912536532433,0000044C,false,Rx,0,8,5D,65,43,94,58,02,05,B0,
18445088912536532662,000003A0,false,Rx,0,8,92,0E,F9,2C,92,69,B1,03,
18445088912536532902,00000480,false,Rx,0,8,C0,00,A7,F3,7F,08,06,E5,
18445088912536533136,000000C2,false,Rx,0,8,22,80,22,00,80,80,35,BB,
18445088912536533334,000000D0,false,Rx,0,6,39,EC,16,38,0B,F0,00,00,
18445088912536533571,00000488,false,Rx,0,8,DD,1A,18,80,9E,FF,FF,C1,
18445088912536533811,0000048A,false,Rx,0,8,FE,1D,01,02,00,00,00,E0,
18445088912536534048,000004A0,false,Rx,0,8,3E,0A,2E,0A,22,0A,2C,0A,
18445088912536534278,00000368,false,Rx,0,8,43,19,89,86,05,0A,5A,00,
18445088912536534518,000004A8,false,Rx,0,8,03,00,07,80,00,20,E0,44,
18445088912536534753,00000320,false,Rx,0,8,20,40,12,41,0A,4C,0A,81,
18445088912536534990,00000588,false,Rx,0,8,E1,81,80,84,14,80,04,95,
18445088912536535224,000005A0,false,Rx,0,8,80,F2,06,E0,00,C0,1B,AB,
18445088912536535448,00000720,false,Rx,0,7,04,03,0D,00,00,00,00,00,
18445088912536536103,000005DC,false,Rx,0,8,77,14,72,7F,1D,00,80,4D,
18445088912536537004,00000440,false,Rx,0,8,20,52,50,FE,78,00,3C,02,
18445088912536537249,00000540,false,Rx,0,8,70,00,FF,00,FF,00,02,0F,
18445088912536538470,000003D4,false,Rx,0,8,2D,89,24,80,08,00,00,00,
18445088912536538789,0000048C,false,Rx,0,8,0E,09,07,00,00,00,00,00,
18445088912536540343,00000280,false,Rx,0,8,01,19,04,0D,1A,00,1C,1A,
18445088912536540593,00000380,false,Rx,0,8,00,94,00,BF,00,00,00,06,
18445088912536540836,000000AE,false,Rx,0,8,EB,E8,00,00,00,00,03,00,
18445088912536541070,00000488,false,Rx,0,8,CC,1A,19,80,9E,FF,FF,D1,
18445088912536541310,000001A0,false,Rx,0,8,00,40,32,0A,FE,FE,00,1E,
18445088912536541562,000002A0,false,Rx,0,8,00,00,00,64,00,00,E0,84,
18445088912536541828,000004A0,false,Rx,0,8,46,0A,20,0A,46,0A,28,0A,
18445088912536542491,000000D2,false,Rx,0,5,3A,3E,00,00,04,00,00,00,
18445088912536543000,000000D0,false,Rx,0,6,1E,FD,21,38,0A,F0,00,00,
18445088912536543235,000000C2,false,Rx,0,8,22,80,88,00,80,90,29,45,
18445088912536543437,000003D0,false,Rx,0,6,01,00,08,00,C8,86,00,00,
18445088912536546959,00000440,false,Rx,0,8,20,52,50,FE,78,00,44,02,
18445088912536547197,00000540,false,Rx,0,8,80,00,FF,00,FF,00,02,56,
18445088912536547422,00000722,false,Rx,0,7,08,03,01,01,00,00,00,00,
18445088912536547589,0000038A,false,Rx,0,4,A8,80,08,20,00,00,00,00,
18445088912536548645,000005C0,false,Rx,0,8,05,00,00,A6,2D,00,08,86,
18445088912536548888,00000497,false,Rx,0,8,00,60,00,00,74,46,00,60,
18445088912536549130,0000048C,false,Rx,0,8,0D,0A,07,00,00,00,00,00,
18445088912536549800,00000721,false,Rx,0,7,08,03,01,00,00,00,00,00,
18445088912536550352,00000280,false,Rx,0,8,01,19,04,0D,1A,00,1C,1A,
18445088912536550559,00000284,false,Rx,0,6,6B,5F,04,30,00,00,00,00,
18445088912536550805,000000AE,false,Rx,0,8,FB,F8,00,00,00,00,03,00,
18445088912536550977,00000050,false,Rx,0,4,00,B0,74,C4,00,00,00,00,
18445088912536551220,000001A0,false,Rx,0,8,00,40,32,0A,FE,FE,00,1F,
18445088912536551451,00000288,false,Rx,0,8,E8,BD,78,00,00,50,ED,0C,
18445088912536551687,000001AC,false,Rx,0,8,72,1F,10,00,60,21,FD,C1,
18445088912536551936,00000380,false,Rx,0,8,00,94,00,BF,00,00,00,06,
18445088912536552179,000002A0,false,Rx,0,8,00,00,00,64,00,00,F0,94,
18445088912536552410,0000044C,false,Rx,0,8,2A,62,43,94,58,02,05,C0,
18445088912536552645,000003A0,false,Rx,0,8,91,0F,FC,38,C2,29,B2,03,
18445088912536552882,00000480,false,Rx,0,8,C0,00,A7,F3,7F,08,06,E5,
18445088912536553120,000000C2,false,Rx,0,8,22,80,10,01,80,A0,FB,AC,
18445088912536553326,000000D0,false,Rx,0,6,D2,0E,1D,38,09,F0,00,00,
18445088912536553558,00000488,false,Rx,0,8,FC,1A,19,80,9E,FF,FF,E1,
18445088912536553798,0000048A,false,Rx,0,8,EE,1D,01,02,00,00,00,F0,
18445088912536554033,000004A0,false,Rx,0,8,42,0A,22,0A,4A,0A,2C,0A,
18445088912536554266,00000368,false,Rx,0,8,40,1A,89,86,05,0A,5A,00,
18445088912536554514,000004A8,false,Rx,0,8,2C,00,03,80,00,20,F0,7F,
18445088912536554746,00000320,false,Rx,0,8,20,40,12,35,0A,4D,0A,81,
18445088912536554993,00000550,false,Rx,0,8,40,C0,80,00,00,00,00,00,
18445088912536555233,00000588,false,Rx,0,8,E1,81,80,00,14,80,04,95,
18445088912536555478,0000058C,false,Rx,0,8,90,A0,21,00,00,00,00,00,
18445088912536555713,000005A0,false,Rx,0,8,81,F0,06,F0,00,C3,1B,AB,
18445088912536557008,00000440,false,Rx,0,8,20,52,50,FE,78,00,4C,02,
18445088912536557244,00000540,false,Rx,0,8,90,00,FF,00,FF,00,02,56,
18445088912536558483,000003D4,false,Rx,0,8,2A,8A,20,80,08,00,00,00,
18445088912536560422,00000280,false,Rx,0,8,01,19,08,0D,1A,00,1C,1A,
18445088912536560670,000000AE,false,Rx,0,8,0B,08,00,00,00,00,03,00,
18445088912536560915,00000380,false,Rx,0,8,00,95,00,BF,00,00,00,06,
18445088912536561154,000001A0,false,Rx,0,8,00,40,38,0A,FE,FE,00,10,
18445088912536561392,00000488,false,Rx,0,8,EC,1A,19,80,9E,FF,FF,F1,
18445088912536561636,000002A0,false,Rx,0,8,00,00,00,64,00,00,00,64,
18445088912536561886,000004A0,false,Rx,0,8,40,0A,30,0A,48,0A,32,0A,
18445088912536562133,000002B7,false,Rx,0,8,17,07,00,00,00,00,10,00,
18445088912536562885,000000D2,false,Rx,0,5,3B,3F,00,00,04,00,00,00,
18445088912536563121,000000C2,false,Rx,0,8,22,80,CC,00,80,B0,9C,E1,
18445088912536563323,000000D0,false,Rx,0,6,CF,1F,11,38,09,F0,00,00,
18445088912536563527,000003D0,false,Rx,0,6,00,00,08,00,C8,86,00,00,
18445088912536563777,0000048C,false,Rx,0,8,0C,0B,07,00,00,00,00,00,
18445088912536564248,0000056A,false,Rx,0,8,7F,03,10,20,10,0C,00,50,
18445088912536564495,00000366,false,Rx,0,8,55,05,00,00,00,00,80,D0,
18445088912536564726,00000520,false,Rx,0,8,77,C4,01,0F,1B,2E,EE,02,
18445088912536566973,00000440,false,Rx,0,8,20,52,50,FE,78,00,54,02,
18445088912536567212,00000540,false,Rx,0,8,A0,00,FF,00,FF,00,02,56,
18445088912536570355,00000280,false,Rx,0,8,01,18,08,0D,1A,00,1C,1A,
18445088912536570557,00000284,false,Rx,0,6,64,50,04,30,00,00,00,00,
18445088912536570804,000000AE,false,Rx,0,8,1B,18,00,00,00,00,03,00,
18445088912536570967,00000050,false,Rx,0,4,00,B0,84,34,00,00,00,00,
18445088912536571207,000001A0,false,Rx,0,8,00,40,38,0A,FE,FE,00,11,
18445088912536571443,00000288,false,Rx,0,8,36,BD,78,00,00,50,ED,0C,
18445088912536571681,000001AC,false,Rx,0,8,7D,10,10,00,60,21,FD,C1,
18445088912536571926,00000380,false,Rx,0,8,00,95,00,BF,00,00,00,06,
18445088912536572172,000002A0,false,Rx,0,8,00,00,00,64,00,00,10,74,
18445088912536572404,0000044C,false,Rx,0,8,39,61,43,94,58,02,05,D0,
18445088912536572636,000003A0,false,Rx,0,8,11,00,FF,44,F2,E9,B2,03,
18445088912536572872,00000480,false,Rx,0,8,19,00,B4,F3,7F,08,06,2F,
18445088912536573104,000000C2,false,Rx,0,8,22,80,22,00,80,C0,A1,7B,
18445088912536573302,000000D0,false,Rx,0,6,EB,20,0A,38,09,F0,00,00,
18445088912536573524,000003D2,false,Rx,0,7,B4,06,33,80,01,00,00,00,
18445088912536573757,00000488,false,Rx,0,8,F9,1A,18,80,9E,FF,1B,01,
18445088912536574001,0000048A,false,Rx,0,8,1F,1C,01,02,00,00,00,00,
18445088912536574236,000004A0,false,Rx,0,8,36,0A,3A,0A,44,0A,4C,0A,
18445088912536574468,00000368,false,Rx,0,8,41,1B,89,86,05,0A,5A,00,
18445088912536574711,0000048C,false,Rx,0,8,0B,0C,07,00,00,00,00,00,
18445088912536574949,000004A8,false,Rx,0,8,45,00,03,80,00,20,00,E6,
18445088912536575184,00000588,false,Rx,0,8,E1,81,80,01,15,80,04,95,
18445088912536575420,000005A0,false,Rx,0,8,80,F4,06,00,00,C6,1B,AB,
18445088912536575658,000005C0,false,Rx,0,8,06,00,00,A6,2D,00,08,85,
18445088912536575898,000005E0,false,Rx,0,8,30,00,40,1C,49,83,07,FB,
18445088912536576135,00000320,false,Rx,0,8,20,40,12,33,0A,4E,0A,81,
18445088912536576381,000003B2,false,Rx,0,8,00,80,47,02,00,00,00,00,
18445088912536576603,00000723,false,Rx,0,7,08,03,05,00,02,00,00,00,
18445088912536577048,00000440,false,Rx,0,8,20,52,50,FE,78,00,5C,02,
18445088912536577290,00000540,false,Rx,0,8,B0,00,FF,00,FF,00,02,56,
18445088912536577633,0000038A,false,Rx,0,4,B8,80,18,20,00,00,00,00,
18445088912536579711,000003D4,false,Rx,0,8,15,8B,1E,80,08,00,00,00,
18445088912536580503,00000280,false,Rx,0,8,01,18,08,0D,1A,00,1C,1A,
18445088912536580749,000000AE,false,Rx,0,8,2B,28,00,00,00,00,03,00,
18445088912536580993,00000380,false,Rx,0,8,00,95,00,BF,00,00,00,06,
18445088912536581235,000001A0,false,Rx,0,8,00,40,34,0A,FE,FE,00,12,
18445088912536581465,00000488,false,Rx,0,8,ED,1A,18,80,9E,FF,1F,11,
18445088912536581711,000002A0,false,Rx,0,8,00,00,00,64,00,00,20,44,
18445088912536581994,000004A0,false,Rx,0,8,2E,0A,3A,0A,16,0A,58,0A,
18445088912536582778,000000D2,false,Rx,0,5,34,30,00,00,04,00,00,00,
18445088912536582996,000000D0,false,Rx,0,6,F6,31,06,38,09,F0,00,00,
18445088912536583228,000000C2,false,Rx,0,8,22,80,44,80,80,D0,52,C9,
18445088912536583436,000003D0,false,Rx,0,6,00,00,08,00,C8,86,00,00,
18445088912536586955,00000440,false,Rx,0,8,20,52,50,FE,78,00,64,02,
18445088912536587197,00000540,false,Rx,0,8,C0,00,FF,00,FF,00,02,0F,
18445088912536587443,0000048C,false,Rx,0,8,0A,0D,07,00,00,00,00,00,
18445088912536590321,00000280,false,Rx,0,8,01,19,0C,0D,1A,00,1C,1A,
18445088912536590524,00000284,false,Rx,0,6,65,51,04,30,00,00,00,00,
18445088912536590767,000000AE,false,Rx,0,8,3B,38,00,00,00,00,03,00,
18445088912536590934,00000050,false,Rx,0,4,00,B0,94,24,00,00,00,00,
18445088912536591179,000001A0,false,Rx,0,8,00,40,2E,0A,FE,FE,00,13,
18445088912536591414,00000288,false,Rx,0,8,36,BD,78,00,00,50,ED,0C,
18445088912536591662,000001AB,false,Rx,0,8,04,04,00,00,00,00,00,00,
18445088912536591906,00000380,false,Rx,0,8,00,95,00,BF,00,00,00,06,
18445088912536592140,000001AC,false,Rx,0,8,79,11,10,00,65,21,FD,C1,
18445088912536592372,0000044C,false,Rx,0,8,36,5E,43,94,58,02,05,E0,
18445088912536592617,000002A0,false,Rx,0,8,00,00,00,64,00,00,30,54,
18445088912536592853,00000480,false,Rx,0,8,19,00,C1,F3,7F,08,06,5A,
18445088912536593094,000000C2,false,Rx,0,8,22,80,00,00,80,E0,03,7D,
18445088912536593294,000000D0,false,Rx,0,6,89,42,0A,38,09,F0,00,00,
18445088912536593525,000003A0,false,Rx,0,8,6A,01,02,51,22,AA,B3,03,
18445088912536593757,00000488,false,Rx,0,8,40,1A,18,80,9E,FF,82,21,
18445088912536593995,0000048A,false,Rx,0,8,0F,1C,01,02,00,00,00,10,
18445088912536594233,000004A0,false,Rx,0,8,36,0A,28,0A,0E,0A,58,0A,
18445088912536594464,00000368,false,Rx,0,8,46,1C,89,86,05,0A,5A,00,
18445088912536594699,00000320,false,Rx,0,8,20,40,12,39,0A,4F,0A,81,
18445088912536594938,000004A8,false,Rx,0,8,33,00,07,80,00,20,10,84,
18445088912536595170,00000588,false,Rx,0,8,E1,81,80,01,15,80,04,95,
18445088912536595408,000005A0,false,Rx,0,8,7F,EC,06,10,00,C9,1B,AB,
18445088912536595642,000005C0,false,Rx,0,8,07,00,00,A6,2D,00,08,84,
18445088912536595884,000005B7,false,Rx,0,8,D9,D9,00,00,00,00,00,00,
18445088912536596000,00000572,false,Rx,0,1,07,00,00,00,00,00,00,00,
18445088912536597012,00000440,false,Rx,0,8,20,52,50,FE,78,00,6C,02,
18445088912536597254,00000397,false,Rx,0,8,07,0F,08,00,00,00,00,00,
18445088912536597497,00000540,false,Rx,0,8,D0,00,FF,00,FF,00,02,0F,
18445088912536598585,000003D4,false,Rx,0,8,12,8C,1E,80,08,00,00,00,
18445088912536600439,00000280,false,Rx,0,8,01,19,0C,0D,1A,00,1C,1A,
18445088912536600677,000000AE,false,Rx,0,8,4B,48,00,00,00,00,03,00,
18445088912536600926,00000380,false,Rx,0,8,00,95,00,C0,00,00,00,06,
18445088912536601165,000001A0,false,Rx,0,8,00,40,30,0A,FE,FE,00,14,
18445088912536601403,00000488,false,Rx,0,8,D4,1A,19,80,9E,FF,07,31,
18445088912536601642,000002A0,false,Rx,0,8,00,00,00,64,00,00,40,24,
18445088912536601886,0000048C,false,Rx,0,8,09,0E,07,00,00,00,00,00,
18445088912536602124,000004A0,false,Rx,0,8,3C,0A,24,0A,0C,0A,5E,0A,
18445088912536602837,000000D2,false,Rx,0,5,35,31,00,00,04,00,00,00,
18445088912536603038,000000D0,false,Rx,0,6,82,53,10,38,09,F0,00,00,
18445088912536603276,000000C2,false,Rx,0,8,22,80,00,00,80,F0,26,6D,
18445088912536603480,000003D0,false,Rx,0,6,00,00,08,00,C8,86,00,00,
18445088912536603723,0000059D,false,Rx,0,8,00,AA,ED,00,00,00,00,00,
18445088912536604241,0000056A,false,Rx,0,8,4F,03,10,20,10,0C,00,60,
18445088912536604483,00000366,false,Rx,0,8,56,06,00,00,00,00,80,D0,
18445088912536605537,000005D6,false,Rx,0,5,00,00,00,00,00,00,00,00,
18445088912536606951,00000440,false,Rx,0,8,20,52,50,FE,78,00,74,02,
18445088912536607195,00000540,false,Rx,0,8,E0,00,FF,00,FF,00,02,0F,
18445088912536607364,0000038A,false,Rx,0,4,88,80,28,20,00,00,00,00,
18445088912536610298,00000280,false,Rx,0,8,01,19,0C,0D,1A,00,1C,1A,
18445088912536610503,00000284,false,Rx,0,6,66,52,04,30,00,00,00,00,
18445088912536610740,000000AE,false,Rx,0,8,5B,58,00,00,00,00,03,00,
18445088912536610908,00000050,false,Rx,0,4,00,B0,A4,14,00,00,00,00,
18445088912536611148,000001A0,false,Rx,0,8,00,40,2E,0A,FE,FE,00,15,
18445088912536611384,00000288,false,Rx,0,8,36,BD,78,00,00,50,ED,0C,
18445088912536611616,000001AC,false,Rx,0,8,76,12,10,00,69,21,FD,C1,
18445088912536611864,00000380,false,Rx,0,8,00,95,00,C0,00,00,00,06,
18445088912536612107,000002A0,false,Rx,0,8,00,00,00,64,00,00,50,34,
18445088912536612341,0000044C,false,Rx,0,8,22,5A,43,94,58,02,05,F0,
18445088912536612573,000003A0,false,Rx,0,8,E5,02,05,5D,62,6A,B4,03,
18445088912536612816,000002B7,false,Rx,0,8,18,08,00,00,00,00,10,00,
18445088912536613018,000000D0,false,Rx,0,6,B7,64,12,38,09,F0,00,00,
18445088912536613258,000000C2,false,Rx,0,8,22,80,00,00,80,00,DA,5D,
18445088912536613496,00000480,false,Rx,0,8,19,00,C1,F3,7F,08,06,5A,
18445088912536613728,00000488,false,Rx,0,8,85,1A,19,80,9E,FF,26,41,
18445088912536613975,0000048A,false,Rx,0,8,3F,1C,01,02,00,00,00,20,
18445088912536614221,0000048C,false,Rx,0,8,08,0F,07,00,00,00,00,00,
18445088912536614451,00000368,false,Rx,0,8,47,1D,89,86,05,0A,5A,00,
18445088912536614687,000004A0,false,Rx,0,8,3A,0A,24,0A,3E,0A,4C,0A,
18445088912536614923,00000320,false,Rx,0,8,20,40,12,2D,0A,40,0A,81,
18445088912536615161,000004A8,false,Rx,0,8,45,00,07,80,00,20,20,C2,
18445088912536615399,00000588,false,Rx,0,8,E1,81,80,00,15,80,04,95,
18445088912536615635,000005A0,false,Rx,0,8,7F,EC,06,20,00,CC,1B,AB,
18445088912536616502,000005C0,false,Rx,0,8,08,00,00,A6,2D,00,08,8B,
18445088912536617054,00000440,false,Rx,0,8,20,52,50,FE,78,00,7C,02,
18445088912536617297,00000540,false,Rx,0,8,F0,00,FF,00,FF,00,02,0F,
18445088912536618518,000003D4,false,Rx,0,8,13,8D,1E,80,08,00,00,00,
18445088912536620392,00000280,false,Rx,0,8,01,19,0C,0D,1A,00,1C,1A,
18445088912536620635,000000AE,false,Rx,0,8,6B,68,00,00,00,00,03,00,
18445088912536620877,00000380,false,Rx,0,8,00,95,00,BF,00,00,00,06,
18445088912536621124,000001A0,false,Rx,0,8,00,40,2A,0A,FE,FE,00,16,
18445088912536621355,00000488,false,Rx,0,8,4C,1A,19,80,9E,FF,FF,51,
18445088912536621601,000002A0,false,Rx,0,8,00,00,00,64,00,00,60,04,
18445088912536621863,000004A0,false,Rx,0,8,2E,0A,28,0A,3A,0A,3E,0A,
18445088912536623020,000000D0,false,Rx,0,6,BF,75,0A,38,08,F0,00,00,
18445088912536623257,000000C2,false,Rx,0,8,22,80,00,00,80,10,FF,4D,
18445088912536623463,000003D0,false,Rx,0,6,00,00,08,00,C8,86,00,00,
18445088912536623687,000003D2,false,Rx,0,7,B5,07,33,80,01,00,00,00,
18445088912536625078,000000D2,false,Rx,0,5,36,32,00,00,04,00,00,00,
18445088912536625926,00000390,false,Rx,0,8,03,00,50,00,40,00,00,08,
18445088912536626169,0000048C,false,Rx,0,8,17,10,07,00,00,00,00,00,
18445088912536626410,00000392,false,Rx,0,8,08,00,04,21,00,17,80,00,
18445088912536626618,00000570,false,Rx,0,5,47,20,AC,00,00,00,00,00,
18445088912536626876,000005D0,false,Rx,0,8,C0,04,61,8F,39,59,C0,00,
18445088912536627113,00000440,false,Rx,0,8,20,52,50,FE,78,00,04,02,
18445088912536627357,00000540,false,Rx,0,8,00,00,FF,00,FF,00,02,56,
18445088912536630355,00000280,false,Rx,0,8,01,19,0C,0D,1B,00,1C,1B,
18445088912536630559,00000284,false,Rx,0,6,67,53,04,30,00,00,00,00,
18445088912536630798,000000AE,false,Rx,0,8,7B,78,00,00,00,00,03,00,
18445088912536630965,00000050,false,Rx,0,4,00,B0,B4,04,00,00,00,00,
18445088912536631209,000001A0,false,Rx,0,8,00,40,2A,0A,FE,FE,00,17,
18445088912536631442,00000288,false,Rx,0,8,36,BD,78,00,00,50,ED,0C,
18445088912536631677,000001AC,false,Rx,0,8,77,13,10,00,69,21,FD,C1,
18445088912536631918,00000380,false,Rx,0,8,00,95,00,BF,00,00,00,06,
18445088912536632161,000002A0,false,Rx,0,8,00,00,00,64,00,00,70,14,
18445088912536632390,0000044C,false,Rx,0,8,D3,5B,43,94,58,02,05,00,
18445088912536632619,000003A0,false,Rx,0,8,6C,03,08,69,92,2A,B5,03,
18445088912536632859,00000480,false,Rx,0,8,19,00,CF,F3,7F,08,06,54,
18445088912536633097,000000C2,false,Rx,0,8,22,80,00,00,80,20,90,3D,
18445088912536633298,000000D0,false,Rx,0,6,45,86,06,3C,09,F0,00,00,
18445088912536633536,00000488,false,Rx,0,8,7C,1B,18,80,9E,FF,FF,61,
18445088912536633776,0000048A,false,Rx,0,8,2F,1C,01,02,00,00,00,30,
18445088912536634010,000004A0,false,Rx,0,8,20,0A,34,0A,50,0A,28,0A,
18445088912536634242,00000368,false,Rx,0,8,44,1E,89,87,05,0B,5A,00,
18445088912536634484,000004A8,false,Rx,0,8,30,00,07,80,00,20,30,A7,
18445088912536634719,00000320,false,Rx,0,8,20,40,12,2D,0A,41,0A,81,
18445088912536634957,00000588,false,Rx,0,8,E1,81,80,00,15,80,04,95,
18445088912536635189,000005A0,false,Rx,0,8,7D,EA,06,30,00,CF,1B,AB,
18445088912536635884,000005C0,false,Rx,0,8,09,00,00,A6,2D,00,08,8A,
18445088912536636117,000005DC,false,Rx,0,8,77,14,72,7F,1D,00,80,4D,
18445088912536636365,0000048C,false,Rx,0,8,06,01,07,00,00,00,00,00,
18445088912536636991,00000440,false,Rx,0,8,20,52,50,FE,78,00,0C,02,
18445088912536637231,00000540,false,Rx,0,8,10,00,FF,00,FF,00,02,56,
18445088912536638415,0000038A,false,Rx,0,4,98,80,38,20,00,00,00,00,
18445088912536638658,000003D4,false,Rx,0,8,12,8E,1C,80,08,00,00,00,
18445088912536640396,00000280,false,Rx,0,8,01,19,0C,0D,1B,00,1C,1B,
18445088912536640637,000000AE,false,Rx,0,8,8B,88,00,00,00,00,03,00,
18445088912536640883,00000380,false,Rx,0,8,00,95,00,C2,00,00,00,06,
18445088912536641124,000001A0,false,Rx,0,8,00,40,30,0A,FE,FE,00,18,
18445088912536641358,00000488,false,Rx,0,8,6D,1B,19,80,9E,FF,FF,71,
18445088912536641603,000002A0,false,Rx,0,8,00,00,00,64,00,00,80,E4,
18445088912536641870,000004A0,false,Rx,0,8,20,0A,40,0A,1C,0A,2C,0A,
18445088912536642628,000000D2,false,Rx,0,5,37,33,00,00,04,00,00,00,
18445088912536643025,000000D0,false,Rx,0,6,5F,97,0D,3C,09,F0,00,00,
18445088912536643259,000000C2,false,Rx,0,8,22,80,00,00,80,30,B5,2D,
18445088912536643463,000003D0,false,Rx,0,6,00,00,08,00,C8,86,00,00,
18445088912536644251,0000056A,false,Rx,0,8,5F,03,10,20,10,0C,00,70,
18445088912536644493,00000366,false,Rx,0,8,57,07,00,00,00,00,80,D0,
18445088912536646951,00000440,false,Rx,0,8,20,52,50,FE,78,00,14,02,
18445088912536647193,00000540,false,Rx,0,8,20,00,FF,00,FF,00,02,56,
18445088912536648517,00000497,false,Rx,0,8,00,60,00,00,74,46,00,60,
18445088912536650255,0000048C,false,Rx,0,8,05,02,07,00,00,00,00,00,
18445088912536650492,00000280,false,Rx,0,8,01,19,0C,0D,1B,00,1C,1B,
18445088912536650732,000000AE,false,Rx,0,8,9B,98,00,00,00,00,03,00,
18445088912536650900,00000050,false,Rx,0,4,00,B0,C4,74,00,00,00,00,
18445088912536651142,000001A0,false,Rx,0,8,00,40,34,0A,FE,FE,00,19,
18445088912536651348,00000284,false,Rx,0,6,60,54,04,30,00,00,00,00,
18445088912536651584,000001AC,false,Rx,0,8,70,14,10,00,69,21,FD,C1,
18445088912536651818,00000288,false,Rx,0,8,4E,BD,78,00,00,50,ED,0C,
18445088912536652062,000002A0,false,Rx,0,8,00,00,00,64,00,00,90,F4,
18445088912536652305,00000380,false,Rx,0,8,00,95,00,C2,00,00,00,06,
18445088912536652535,000003A0,false,Rx,0,8,E4,04,0B,75,C2,EA,B5,03,
18445088912536652769,0000044C,false,Rx,0,8,C3,5B,43,94,58,02,05,10,
18445088912536653003,00000480,false,Rx,0,8,70,00,CF,F3,7F,08,06,3D,
18445088912536653244,000000C2,false,Rx,0,8,22,80,00,00,80,40,4E,1D,
18445088912536653443,000000D0,false,Rx,0,6,61,A8,0C,3C,09,F0,00,00,
18445088912536653678,00000488,false,Rx,0,8,9D,1B,19,80,9E,FF,FF,81,
18445088912536653919,0000048A,false,Rx,0,8,5F,1C,01,02,00,00,00,40,
18445088912536654156,000004A0,false,Rx,0,8,2C,0A,3E,0A,2E,0A,38,0A,
18445088912536654387,00000368,false,Rx,0,8,45,1F,89,87,05,0B,5A,00,
18445088912536654626,000004A8,false,Rx,0,8,32,00,07,80,00,20,40,D5,
18445088912536654863,00000320,false,Rx,0,8,20,40,12,29,0A,42,0A,81,
18445088912536655103,00000588,false,Rx,0,8,E1,81,80,00,15,80,04,95,
18445088912536655345,0000058C,false,Rx,0,8,90,A0,21,00,00,00,00,00,
18445088912536655577,000005A0,false,Rx,0,8,7C,F0,06,40,00,D2,1B,AB,
18445088912536657025,00000440,false,Rx,0,8,20,52,50,FE,78,00,1C,02,
18445088912536657267,00000540,false,Rx,0,8,30,00,FF,00,FF,00,02,56,
18445088912536659815,000003D4,false,Rx,0,8,11,8F,1E,80,08,00,00,00,
18445088912536660107,000005C0,false,Rx,0,8,0A,00,00,A6,2D,00,08,89,
18445088912536660545,0000048C,false,Rx,0,8,04,03,07,00,00,00,00,00,
18445088912536660786,000000AE,false,Rx,0,8,AB,A8,00,00,00,00,03,00,
18445088912536661026,00000280,false,Rx,0,8,01,19,08,0D,1B,00,1C,1B,
18445088912536661270,000001A0,false,Rx,0,8,00,40,46,0A,FE,FE,00,1A,
18445088912536661514,00000380,false,Rx,0,8,00,95,00,C3,00,00,00,06,
18445088912536661756,000002A0,false,Rx,0,8,00,00,00,64,00,00,A0,C4,
18445088912536661991,00000488,false,Rx,0,8,8D,1B,19,80,9E,FF,FF,91,
18445088912536662221,000004A0,false,Rx,0,8,52,0A,3A,0A,2E,0A,4C,0A,
18445088912536662465,000002B7,false,Rx,0,8,19,09,00,00,00,00,10,00,
18445088912536662980,000000D2,false,Rx,0,5,30,34,00,00,04,00,00,00,
18445088912536663215,000000C2,false,Rx,0,8,22,80,00,00,80,50,6B,0D,
18445088912536663417,000000D0,false,Rx,0,6,79,B9,05,3C,09,F0,00,00,
18445088912536663621,000003D0,false,Rx,0,6,00,00,08,00,C8,86,00,00,
18445088912536664494,00000420,false,Rx,0,8,9C,A4,AC,00,18,41,FF,00,
18445088912536666955,00000440,false,Rx,0,8,20,52,50,FE,78,00,24,02,
18445088912536667194,00000540,false,Rx,0,8,40,00,FF,00,FF,00,02,0F,
18445088912536668656,0000038A,false,Rx,0,4,E8,80,48,20,00,00,00,00,
18445088912536670302,00000280,false,Rx,0,8,01,19,08,0D,1A,00,1C,1A,
18445088912536670507,00000284,false,Rx,0,6,61,55,04,30,00,00,00,00,
18445088912536670749,000000AE,false,Rx,0,8,BB,B8,00,00,00,00,03,00,
18445088912536670913,00000050,false,Rx,0,4,00,B0,D4,64,00,00,00,00,
18445088912536671153,000001A0,false,Rx,0,8,00,40,38,0A,FE,FE,00,1B,
18445088912536671387,00000288,false,Rx,0,8,4E,BD,78,00,00,50,ED,0C,
18445088912536671622,000001AC,false,Rx,0,8,71,15,10,00,69,21,FD,C1,
18445088912536671869,00000380,false,Rx,0,8,00,95,00,C4,00,00,00,06,
18445088912536672113,000002A0,false,Rx,0,8,00,00,00,64,00,00,B0,D4,
18445088912536672344,0000044C,false,Rx,0,8,F5,5D,43,94,58,02,05,20,
18445088912536672578,000003A0,false,Rx,0,8,67,05,0E,81,F2,AA,B6,03,
18445088912536672815,00000480,false,Rx,0,8,70,00,DC,F3,7F,08,06,2E,
18445088912536673014,000000D0,false,Rx,0,6,0D,CA,07,38,08,F0,00,00,
18445088912536673254,000000C2,false,Rx,0,8,22,80,00,00,80,60,04,FD,
18445088912536673481,000003D2,false,Rx,0,7,BA,08,33,80,01,00,00,00,
18445088912536673715,00000488,false,Rx,0,8,BC,1A,19,80,9E,FF,FF,A1,
18445088912536673954,0000048A,false,Rx,0,8,4F,1C,01,02,00,00,00,50,
18445088912536674188,000004A0,false,Rx,0,8,50,0A,22,0A,42,0A,44,0A,
18445088912536674424,00000368,false,Rx,0,8,4A,10,89,87,05,0B,5A,00,
18445088912536674671,0000048C,false,Rx,0,8,03,04,07,00,00,00,00,00,
